Time Stamp,ID,Extended,Dir,Bus,LEN,D1,D2,D3,D4,D5,D6,D7,D8
154491,1001117E,true,Rx,0,8,00,01,00,00,00,00,00,00,
543958,1001117E,true,Rx,0,8,00,01,00,00,00,00,00,00,
937825,1001117E,true,Rx,0,8,00,01,00,00,00,00,00,00,
1330810,1001117E,true,Rx,0,8,00,01,00,00,00,00,00,00,
1725868,1001117E,true,Rx,0,8,00,01,00,00,00,00,00,00,
2125867,1001117E,true,Rx,0,8,00,01,00,00,00,00,00,00,
2184185,108182FE,true,Tx,0,8,0F,85,00,00,00,00,00,00,
2186335,108182FE,true,Tx,0,8,00,86,00,00,00,00,00,00,
2187732,108182FE,true,Tx,0,8,01,86,00,00,00,00,00,00,
2189586,1081827E,true,Rx,0,8,2F,85,00,00,00,00,00,00,
2189260,108182FE,true,Tx,0,8,02,86,00,00,00,00,00,00,
2190646,108182FE,true,Tx,0,8,03,86,00,00,00,00,00,00,
2191897,1081827E,true,Rx,0,8,20,86,00,00,00,00,00,00,
2192351,108182FE,true,Tx,0,8,04,86,00,00,00,00,00,00,
2193044,1081827E,true,Rx,0,8,01,86,00,06,00,00,00,00,
2194207,108182FE,true,Tx,0,8,05,86,00,00,00,00,00,00,
2195787,108182FE,true,Tx,0,8,06,86,00,00,00,00,00,00,
2196521,1081827E,true,Rx,0,8,22,86,00,00,00,00,00,00,
2196921,108182FE,true,Tx,0,8,07,86,00,00,00,00,00,00,
2197698,1081827E,true,Rx,0,8,23,86,00,00,00,00,00,00,
2198120,108182FE,true,Tx,0,8,08,86,00,00,00,00,00,00,
2199264,108182FE,true,Tx,0,8,09,86,00,00,00,00,00,00,
2200451,108182FE,true,Tx,0,8,0A,86,00,00,00,00,00,00,
2201191,1081827E,true,Rx,0,8,24,86,00,00,00,00,00,00,
2201575,108182FE,true,Tx,0,8,0B,86,00,00,00,00,00,00,
2202746,108182FE,true,Tx,0,8,0C,86,00,00,00,00,00,00,
2203480,1081827E,true,Rx,0,8,25,86,00,00,00,00,00,00,
2203910,108182FE,true,Tx,0,8,0D,86,00,00,00,00,00,00,
2205085,108182FE,true,Tx,0,8,0E,86,00,00,00,00,00,00,
2205819,1081827E,true,Rx,0,8,26,86,00,00,00,00,00,00,
2206269,108182FE,true,Tx,0,8,0F,86,00,00,00,00,00,00,
2207560,108182FE,true,Tx,0,8,00,87,00,00,00,00,00,00,
2208132,1081827E,true,Rx,0,8,27,86,00,00,00,00,00,00,
2208746,108182FE,true,Tx,0,8,01,87,00,00,00,00,00,00,
2210469,1081827E,true,Rx,0,8,28,86,00,00,00,00,00,00,
2209939,108182FE,true,Tx,0,8,02,87,00,00,00,00,00,00,
2211081,108182FE,true,Tx,0,8,03,87,00,00,00,00,00,00,
2212776,1081827E,true,Rx,0,8,29,86,00,00,00,00,00,00,
2212311,108182FE,true,Tx,0,8,04,87,00,00,00,00,00,00,
2213457,108182FE,true,Tx,0,8,05,87,00,00,00,00,00,00,
2215091,1081827E,true,Rx,0,8,2A,86,00,00,00,00,00,00,
2214632,108182FE,true,Tx,0,8,06,87,00,00,00,00,00,00,
2215731,108182FE,true,Tx,0,8,07,87,00,00,00,00,00,00,
2217422,1081827E,true,Rx,0,8,2B,86,00,00,00,00,00,00,
2216878,108182FE,true,Tx,0,8,08,87,00,00,00,00,00,00,
2218011,108182FE,true,Tx,0,8,09,87,00,00,00,00,00,00,
2219736,1081827E,true,Rx,0,8,2C,86,00,00,00,00,00,00,
2222073,1081827E,true,Rx,0,8,2D,86,00,00,00,00,00,00,
2224419,1081827E,true,Rx,0,8,2E,86,00,00,00,00,00,00,
2226740,1081827E,true,Rx,0,8,2F,86,00,00,00,00,00,00,
2229091,1081827E,true,Rx,0,8,20,87,00,00,00,00,00,00,
2229560,108182FE,true,Tx,0,8,0A,87,00,00,00,00,00,00,
2230224,1081827E,true,Rx,0,8,21,87,00,00,00,00,00,00,
2233726,1081827E,true,Rx,0,8,22,87,00,00,00,00,00,00,
2236031,1081827E,true,Rx,0,8,23,87,00,00,00,00,00,00,
2237183,1081827E,true,Rx,0,8,24,87,00,00,00,00,00,00,
2240671,1081827E,true,Rx,0,8,25,87,00,00,00,00,00,00,
2242977,1081827E,true,Rx,0,8,26,87,00,00,00,00,00,00,
2242827,108182FE,true,Tx,0,8,0B,87,00,00,00,00,00,00,
2245311,1081827E,true,Rx,0,8,27,87,00,00,00,00,00,00,
2247604,1081827E,true,Rx,0,8,28,87,00,00,00,00,00,00,
2249906,1081827E,true,Rx,0,8,29,87,00,00,00,00,00,00,
2252222,1081827E,true,Rx,0,8,2A,87,00,00,00,00,00,00,
2253439,1081827E,true,Rx,0,8,2B,87,00,00,00,00,00,00,
2254724,108182FE,true,Tx,0,8,0C,87,00,00,00,00,00,00,
2256228,108182FE,true,Tx,0,8,0D,87,00,00,00,00,00,00,
2257570,108182FE,true,Tx,0,8,0E,87,00,00,00,00,00,00,
2259434,1081827E,true,Rx,0,8,2C,87,00,00,00,00,00,00,
2259396,108182FE,true,Tx,0,8,0F,87,00,00,00,00,00,00,
2261749,1081827E,true,Rx,0,8,2D,87,00,00,00,00,00,00,
2261676,108182FE,true,Tx,0,8,00,88,00,00,00,00,00,00,
2264070,1081827E,true,Rx,0,8,2E,87,00,00,00,00,00,00,
2263693,108182FE,true,Tx,0,8,01,88,00,00,00,00,00,00,
2266417,1081827E,true,Rx,0,8,2F,87,00,00,00,00,00,00,
2265914,108182FE,true,Tx,0,8,02,88,00,00,00,00,00,00,
2267275,108182FE,true,Tx,0,8,03,88,00,00,00,00,00,00,
2268773,1081827E,true,Rx,0,8,20,88,00,00,00,00,00,00,
2268615,108182FE,true,Tx,0,8,04,88,00,00,00,00,00,00,
2269867,108182FE,true,Tx,0,8,05,88,00,00,00,00,00,00,
2271109,1081827E,true,Rx,0,8,21,88,00,00,00,00,00,00,
2271100,108182FE,true,Tx,0,8,06,88,00,00,00,00,00,00,
2272467,108182FE,true,Tx,0,8,07,88,00,00,00,00,00,00,
2273417,1081827E,true,Rx,0,8,22,88,00,00,00,00,00,00,
2273748,108182FE,true,Tx,0,8,08,88,00,00,00,00,00,00,
2275002,108182FE,true,Tx,0,8,09,88,00,00,00,00,00,00,
2275738,1081827E,true,Rx,0,8,23,88,00,00,00,00,00,00,
2276662,108182FE,true,Tx,0,8,0A,88,00,00,00,00,00,00,
2278084,1081827E,true,Rx,0,8,24,88,00,00,00,00,00,00,
2278070,108182FE,true,Tx,0,8,0B,88,00,00,00,00,00,00,
2279234,1081827E,true,Rx,0,8,25,88,00,00,00,00,00,00,
2279394,108182FE,true,Tx,0,8,0C,88,00,00,00,00,00,00,
2280628,108182FE,true,Tx,0,8,0D,88,00,00,00,00,00,00,
2281853,108182FE,true,Tx,0,8,0E,88,00,00,00,00,00,00,
2282724,1081827E,true,Rx,0,8,26,88,00,00,00,00,00,00,
2283133,108182FE,true,Tx,0,8,0F,88,00,00,00,00,00,00,
2284325,108182FE,true,Tx,0,8,00,89,00,00,00,00,00,00,
2285070,1081827E,true,Rx,0,8,27,88,00,00,00,00,00,00,
2285555,108182FE,true,Tx,0,8,01,89,00,00,00,00,00,00,
2286693,108182FE,true,Tx,0,8,02,89,00,00,00,00,00,00,
2287414,1081827E,true,Rx,0,8,28,88,00,00,00,00,00,00,
2287898,108182FE,true,Tx,0,8,03,89,00,00,00,00,00,00,
2289025,108182FE,true,Tx,0,8,04,89,00,00,00,00,00,00,
2289705,1081827E,true,Rx,0,8,29,88,00,00,00,00,00,00,
2290190,108182FE,true,Tx,0,8,05,89,00,00,00,00,00,00,
2291285,108182FE,true,Tx,0,8,06,89,00,00,00,00,00,00,
2292026,1081827E,true,Rx,0,8,2A,88,00,00,00,00,00,00,
2292710,108182FE,true,Tx,0,8,07,89,00,00,00,00,00,00,
2294422,1081827E,true,Rx,0,8,2B,88,00,00,00,00,00,00,
2294124,108182FE,true,Tx,0,8,08,89,00,00,00,00,00,00,
2295336,108182FE,true,Tx,0,8,09,89,00,00,00,00,00,00,
2296687,1081827E,true,Rx,0,8,2C,88,00,00,00,00,00,00,
2296616,108182FE,true,Tx,0,8,0A,89,00,00,00,00,00,00,
2297898,108182FE,true,Tx,0,8,0B,89,00,00,00,00,00,00,
2299023,1081827E,true,Rx,0,8,2D,88,00,00,00,00,00,00,
2299225,108182FE,true,Tx,0,8,0C,89,00,00,00,00,00,00,
2300517,108182FE,true,Tx,0,8,0D,89,00,00,00,00,00,00,
2301411,1081827E,true,Rx,0,8,2E,88,00,00,00,00,00,00,
2301718,108182FE,true,Tx,0,8,0E,89,00,00,00,00,00,00,
2303012,108182FE,true,Tx,0,8,0F,89,00,00,00,00,00,00,
2303691,1081827E,true,Rx,0,8,2F,88,00,00,00,00,00,00,
2304577,108182FE,true,Tx,0,8,00,8A,00,00,00,00,00,00,
2306021,1081827E,true,Rx,0,8,20,89,00,00,00,00,00,00,
2305902,108182FE,true,Tx,0,8,01,8A,00,00,00,00,00,00,
2307102,108182FE,true,Tx,0,8,02,8A,00,00,00,00,00,00,
2308416,1081827E,true,Rx,0,8,21,89,00,00,00,00,00,00,
2308263,108182FE,true,Tx,0,8,03,8A,00,00,00,00,00,00,
2309862,108182FE,true,Tx,0,8,04,8A,00,00,00,00,00,00,
2310712,1081827E,true,Rx,0,8,22,89,00,00,00,00,00,00,
2311241,108182FE,true,Tx,0,8,05,8A,00,00,00,00,00,00,
2311834,1081827E,true,Rx,0,8,23,89,00,00,00,00,00,00,
2312394,108182FE,true,Tx,0,8,06,8A,00,00,00,00,00,00,
2313550,108182FE,true,Tx,0,8,07,8A,00,00,00,00,00,00,
2314667,108182FE,true,Tx,0,8,08,8A,00,00,00,00,00,00,
2315295,1081827E,true,Rx,0,8,24,89,00,00,00,00,00,00,
2315802,108182FE,true,Tx,0,8,09,8A,00,00,00,00,00,00,
2316877,108182FE,true,Tx,0,8,0A,8A,00,00,00,00,00,00,
2317608,1081827E,true,Rx,0,8,25,89,00,00,00,00,00,00,
2318026,108182FE,true,Tx,0,8,0B,8A,00,00,00,00,00,00,
2319167,108182FE,true,Tx,0,8,0C,8A,00,00,00,00,00,00,
2319947,1081827E,true,Rx,0,8,26,89,00,00,00,00,00,00,
2320297,108182FE,true,Tx,0,8,0D,8A,00,00,00,00,00,00,
2321427,108182FE,true,Tx,0,8,0E,8A,00,00,00,00,00,00,
2322296,1081827E,true,Rx,0,8,27,89,00,00,00,00,00,00,
2322618,108182FE,true,Tx,0,8,0F,8A,00,00,00,00,00,00,
2324580,1081827E,true,Rx,0,8,28,89,00,00,00,00,00,00,
2324068,108182FE,true,Tx,0,8,00,8B,00,00,00,00,00,00,
2325564,108182FE,true,Tx,0,8,01,8B,00,00,00,00,00,00,
2326885,1081827E,true,Rx,0,8,29,89,00,00,00,00,00,00,
2326848,108182FE,true,Tx,0,8,02,8B,00,00,00,00,00,00,
2328035,1081827E,true,Rx,0,8,2A,89,00,00,00,00,00,00,
2328095,108182FE,true,Tx,0,8,03,8B,00,00,00,00,00,00,
2329330,108182FE,true,Tx,0,8,04,8B,00,00,00,00,00,00,
2330609,108182FE,true,Tx,0,8,05,8B,00,00,00,00,00,00,
2331502,1081827E,true,Rx,0,8,2B,89,00,00,00,00,00,00,
2331782,108182FE,true,Tx,0,8,06,8B,00,00,00,00,00,00,
2332992,108182FE,true,Tx,0,8,07,8B,00,00,00,00,00,00,
2333839,1081827E,true,Rx,0,8,2C,89,00,00,00,00,00,00,
2334246,108182FE,true,Tx,0,8,08,8B,00,00,00,00,00,00,
2335526,108182FE,true,Tx,0,8,09,8B,00,00,00,00,00,00,
2336146,1081827E,true,Rx,0,8,2D,89,00,00,00,00,00,00,
2336764,108182FE,true,Tx,0,8,0A,8B,00,00,00,00,00,00,
2338475,1081827E,true,Rx,0,8,2E,89,00,00,00,00,00,00,
2338061,108182FE,true,Tx,0,8,0B,8B,00,00,00,00,00,00,
2339308,108182FE,true,Tx,0,8,0C,8B,00,00,00,00,00,00,
2340799,1081827E,true,Rx,0,8,2F,89,00,00,00,00,00,00,
2340562,108182FE,true,Tx,0,8,0D,8B,00,00,00,00,00,00,
2341707,108182FE,true,Tx,0,8,0E,8B,00,00,00,00,00,00,
2343137,1081827E,true,Rx,0,8,20,8A,00,00,00,00,00,00,
2343329,108182FE,true,Tx,0,8,0F,8B,00,00,00,00,00,00,
2344590,108182FE,true,Tx,0,8,00,8C,00,00,00,00,00,00,
2345487,1081827E,true,Rx,0,8,21,8A,00,00,00,00,00,00,
2345785,108182FE,true,Tx,0,8,01,8C,00,00,00,00,00,00,
2346949,108182FE,true,Tx,0,8,02,8C,00,00,00,00,00,00,
2347798,1081827E,true,Rx,0,8,22,8A,00,00,00,00,00,00,
2348440,108182FE,true,Tx,0,8,03,8C,00,00,00,00,00,00,
2350098,1081827E,true,Rx,0,8,23,8A,00,00,00,00,00,00,
2349729,108182FE,true,Tx,0,8,04,8C,00,00,00,00,00,00,
2350896,108182FE,true,Tx,0,8,05,8C,00,00,00,00,00,00,
2352412,1081827E,true,Rx,0,8,24,8A,00,00,00,00,00,00,
2352286,108182FE,true,Tx,0,8,06,8C,00,00,00,00,00,00,
2353584,108182FE,true,Tx,0,8,07,8C,00,00,00,00,00,00,
2354719,1081827E,true,Rx,0,8,25,8A,00,00,00,00,00,00,
2354725,108182FE,true,Tx,0,8,08,8C,00,00,00,00,00,00,
2355836,108182FE,true,Tx,0,8,09,8C,00,00,00,00,00,00,
2357058,1081827E,true,Rx,0,8,26,8A,00,00,00,00,00,00,
2357010,108182FE,true,Tx,0,8,0A,8C,00,00,00,00,00,00,
2358231,108182FE,true,Tx,0,8,0B,8C,00,00,00,00,00,00,
2359424,1081827E,true,Rx,0,8,27,8A,00,00,00,00,00,00,
2359904,108182FE,true,Tx,0,8,0C,8C,00,00,00,00,00,00,
2361681,1081827E,true,Rx,0,8,28,8A,00,00,00,00,00,00,
2361358,108182FE,true,Tx,0,8,0D,8C,00,00,00,00,00,00,
2362687,108182FE,true,Tx,0,8,0E,8C,00,00,00,00,00,00,
2363968,1081827E,true,Rx,0,8,29,8A,00,00,00,00,00,00,
2363907,108182FE,true,Tx,0,8,0F,8C,00,00,00,00,00,00,
2365188,108182FE,true,Tx,0,8,00,8D,00,00,00,00,00,00,
2366280,1081827E,true,Rx,0,8,2A,8A,00,00,00,00,00,00,
2366851,108182FE,true,Tx,0,8,01,8D,00,00,00,00,00,00,
2368617,1081827E,true,Rx,0,8,2B,8A,00,00,00,00,00,00,
2368160,108182FE,true,Tx,0,8,02,8D,00,00,00,00,00,00,
2369630,108182FE,true,Tx,0,8,03,8D,00,00,00,00,00,00,
2370951,1081827E,true,Rx,0,8,2C,8A,00,00,00,00,00,00,
2371363,108182FE,true,Tx,0,8,04,8D,00,00,00,00,00,00,
2373271,1081827E,true,Rx,0,8,2D,8A,00,00,00,00,00,00,
2372785,108182FE,true,Tx,0,8,05,8D,00,00,00,00,00,00,
2374075,108182FE,true,Tx,0,8,06,8D,00,00,00,00,00,00,
2375605,1081827E,true,Rx,0,8,2E,8A,00,00,00,00,00,00,
2375481,108182FE,true,Tx,0,8,07,8D,00,00,00,00,00,00,
2377008,108182FE,true,Tx,0,8,08,8D,00,00,00,00,00,00,
2377913,1081827E,true,Rx,0,8,2F,8A,00,00,00,00,00,00,
2378271,108182FE,true,Tx,0,8,09,8D,00,00,00,00,00,00,
2379443,108182FE,true,Tx,0,8,0A,8D,00,00,00,00,00,00,
2380285,1081827E,true,Rx,0,8,20,8B,00,00,00,00,00,00,
2380654,108182FE,true,Tx,0,8,0B,8D,00,00,00,00,00,00,
2381873,108182FE,true,Tx,0,8,0C,8D,00,00,00,00,00,00,
2382619,1081827E,true,Rx,0,8,21,8B,00,00,00,00,00,00,
2383173,108182FE,true,Tx,0,8,0D,8D,00,00,00,00,00,00,
2384899,1081827E,true,Rx,0,8,22,8B,00,00,00,00,00,00,
2384682,108182FE,true,Tx,0,8,0E,8D,00,00,00,00,00,00,
2386012,108182FE,true,Tx,0,8,0F,8D,00,00,00,00,00,00,
2387204,1081827E,true,Rx,0,8,23,8B,00,00,00,00,00,00,
2387220,108182FE,true,Tx,0,8,00,8E,00,00,00,00,00,00,
2388463,108182FE,true,Tx,0,8,01,8E,00,00,00,00,00,00,
2389494,1081827E,true,Rx,0,8,24,8B,00,00,00,00,00,00,
2389733,108182FE,true,Tx,0,8,02,8E,00,00,00,00,00,00,
2390981,108182FE,true,Tx,0,8,03,8E,00,00,00,00,00,00,
2391872,1081827E,true,Rx,0,8,25,8B,00,00,00,00,00,00,
2392202,108182FE,true,Tx,0,8,04,8E,00,00,00,00,00,00,
2394154,1081827E,true,Rx,0,8,26,8B,00,00,00,00,00,00,
2393854,108182FE,true,Tx,0,8,05,8E,00,00,00,00,00,00,
2395265,108182FE,true,Tx,0,8,06,8E,00,00,00,00,00,00,
2396438,1081827E,true,Rx,0,8,27,8B,00,00,00,00,00,00,
2396635,108182FE,true,Tx,0,8,07,8E,00,00,00,00,00,00,
2397898,108182FE,true,Tx,0,8,08,8E,00,00,00,00,00,00,
2398785,1081827E,true,Rx,0,8,28,8B,00,00,00,00,00,00,
2399150,108182FE,true,Tx,0,8,09,8E,00,00,00,00,00,00,
2400311,108182FE,true,Tx,0,8,0A,8E,00,00,00,00,00,00,
2401051,1081827E,true,Rx,0,8,29,8B,00,00,00,00,00,00,
2401471,108182FE,true,Tx,0,8,0B,8E,00,00,00,00,00,00,
2402599,108182FE,true,Tx,0,8,0C,8E,00,00,00,00,00,00,
2403435,1081827E,true,Rx,0,8,2A,8B,00,00,00,00,00,00,
2403717,108182FE,true,Tx,0,8,0D,8E,00,00,00,00,00,00,
2404831,108182FE,true,Tx,0,8,0E,8E,00,00,00,00,00,00,
2405725,1081827E,true,Rx,0,8,2B,8B,00,00,00,00,00,00,
2405985,108182FE,true,Tx,0,8,0F,8E,00,00,00,00,00,00,
2407125,108182FE,true,Tx,0,8,00,8F,00,00,00,00,00,00,
2408013,1081827E,true,Rx,0,8,2C,8B,00,00,00,00,00,00,
2408293,108182FE,true,Tx,0,8,01,8F,00,00,00,00,00,00,
2409409,108182FE,true,Tx,0,8,02,8F,00,00,00,00,00,00,
2410324,1081827E,true,Rx,0,8,2D,8B,00,00,00,00,00,00,
2410919,108182FE,true,Tx,0,8,03,8F,00,00,00,00,00,00,
2412648,1081827E,true,Rx,0,8,2E,8B,00,00,00,00,00,00,
2412362,108182FE,true,Tx,0,8,04,8F,00,00,00,00,00,00,
2413573,108182FE,true,Tx,0,8,05,8F,00,00,00,00,00,00,
2414996,1081827E,true,Rx,0,8,2F,8B,00,00,00,00,00,00,
2414759,108182FE,true,Tx,0,8,06,8F,00,00,00,00,00,00,
2416148,1081827E,true,Rx,0,8,20,8C,00,00,00,00,00,00,
2415885,108182FE,true,Tx,0,8,07,8F,00,00,00,00,00,00,
2417052,108182FE,true,Tx,0,8,08,8F,00,00,00,00,00,00,
2418316,108182FE,true,Tx,0,8,09,8F,00,00,00,00,00,00,
2419668,1081827E,true,Rx,0,8,21,8C,00,00,00,00,00,00,
2419446,108182FE,true,Tx,0,8,0A,8F,00,00,00,00,00,00,
2420608,108182FE,true,Tx,0,8,0B,8F,00,00,00,00,00,00,
2421975,1081827E,true,Rx,0,8,22,8C,00,00,00,00,00,00,
2421824,108182FE,true,Tx,0,8,0C,8F,00,00,00,00,00,00,
2422977,108182FE,true,Tx,0,8,0D,8F,00,00,00,00,00,00,
2424310,1081827E,true,Rx,0,8,23,8C,00,00,00,00,00,00,
2424250,108182FE,true,Tx,0,8,0E,8F,00,00,00,00,00,00,
2425421,108182FE,true,Tx,0,8,0F,8F,00,00,00,00,00,00,
2426633,1081827E,true,Rx,0,8,24,8C,00,00,00,00,00,00,
2426671,108182FE,true,Tx,0,8,00,90,00,00,00,00,00,00,
2427898,108182FE,true,Tx,0,8,01,90,00,00,00,00,00,00,
2428978,1081827E,true,Rx,0,8,25,8C,00,00,00,00,00,00,
2429038,108182FE,true,Tx,0,8,02,90,00,00,00,00,00,00,
2430192,108182FE,true,Tx,0,8,03,90,00,00,00,00,00,00,
2431292,1081827E,true,Rx,0,8,26,8C,00,00,00,00,00,00,
2431384,108182FE,true,Tx,0,8,04,90,00,00,00,00,00,00,
2432858,108182FE,true,Tx,0,8,05,90,00,00,00,00,00,00,
2433593,1081827E,true,Rx,0,8,27,8C,00,00,00,00,00,00,
2434118,108182FE,true,Tx,0,8,06,90,00,00,00,00,00,00,
2435268,108182FE,true,Tx,0,8,07,90,00,00,00,00,00,00,
2435906,1081827E,true,Rx,0,8,28,8C,00,00,00,00,00,00,
2436592,108182FE,true,Tx,0,8,08,90,00,00,00,00,00,00,
2438255,1081827E,true,Rx,0,8,29,8C,00,00,00,00,00,00,
2437736,108182FE,true,Tx,0,8,09,90,00,00,00,00,00,00,
2438956,108182FE,true,Tx,0,8,0A,90,00,00,00,00,00,00,
2440588,1081827E,true,Rx,0,8,2A,8C,00,00,00,00,00,00,
2440171,108182FE,true,Tx,0,8,0B,90,00,00,00,00,00,00,
2441358,108182FE,true,Tx,0,8,0C,90,00,00,00,00,00,00,
2442900,1081827E,true,Rx,0,8,2B,8C,00,00,00,00,00,00,
2442565,108182FE,true,Tx,0,8,0D,90,00,00,00,00,00,00,
2444097,108182FE,true,Tx,0,8,0E,90,00,00,00,00,00,00,
2445235,1081827E,true,Rx,0,8,2C,8C,00,00,00,00,00,00,
2445488,108182FE,true,Tx,0,8,0F,90,00,00,00,00,00,00,
2446770,108182FE,true,Tx,0,8,00,91,00,00,00,00,00,00,
2447611,1081827E,true,Rx,0,8,2D,8C,00,00,00,00,00,00,
2448006,108182FE,true,Tx,0,8,01,91,00,00,00,00,00,00,
2449313,108182FE,true,Tx,0,8,02,91,00,00,00,00,00,00,
2449903,1081827E,true,Rx,0,8,2E,8C,00,00,00,00,00,00,
2450456,108182FE,true,Tx,0,8,03,91,00,00,00,00,00,00,
2451657,108182FE,true,Tx,0,8,04,91,00,00,00,00,00,00,
2452255,1081827E,true,Rx,0,8,2F,8C,00,00,00,00,00,00,
2452859,108182FE,true,Tx,0,8,05,91,00,00,00,00,00,00,
2453999,108182FE,true,Tx,0,8,06,91,00,00,00,00,00,00,
2454597,1081827E,true,Rx,0,8,20,8D,00,00,00,00,00,00,
2455672,108182FE,true,Tx,0,8,07,91,00,00,00,00,00,00,
2456885,1081827E,true,Rx,0,8,21,8D,00,00,00,00,00,00,
2456840,108182FE,true,Tx,0,8,08,91,00,00,00,00,00,00,
2458007,108182FE,true,Tx,0,8,09,91,00,00,00,00,00,00,
2459199,1081827E,true,Rx,0,8,22,8D,00,00,00,00,00,00,
2459120,108182FE,true,Tx,0,8,0A,91,00,00,00,00,00,00,
2460657,108182FE,true,Tx,0,8,0B,91,00,00,00,00,00,00,
2461586,1081827E,true,Rx,0,8,23,8D,00,00,00,00,00,00,
2462044,108182FE,true,Tx,0,8,0C,91,00,00,00,00,00,00,
2463821,1081827E,true,Rx,0,8,24,8D,00,00,00,00,00,00,
2463330,108182FE,true,Tx,0,8,0D,91,00,00,00,00,00,00,
2464532,108182FE,true,Tx,0,8,0E,91,00,00,00,00,00,00,
2466137,1081827E,true,Rx,0,8,25,8D,00,00,00,00,00,00,
2465916,108182FE,true,Tx,0,8,0F,91,00,00,00,00,00,00,
2467329,108182FE,true,Tx,0,8,00,92,00,00,00,00,00,00,
2468453,1081827E,true,Rx,0,8,26,8D,00,00,00,00,00,00,
2468902,108182FE,true,Tx,0,8,01,92,00,00,00,00,00,00,
2470771,1081827E,true,Rx,0,8,27,8D,00,00,00,00,00,00,
2473088,1081827E,true,Rx,0,8,28,8D,00,00,00,00,00,00,
2475421,1081827E,true,Rx,0,8,29,8D,00,00,00,00,00,00,
2477725,1081827E,true,Rx,0,8,2A,8D,00,00,00,00,00,00,
2480017,1081827E,true,Rx,0,8,2B,8D,00,00,00,00,00,00,
2482339,1081827E,true,Rx,0,8,2C,8D,00,00,00,00,00,00,
2482222,108182FE,true,Tx,0,8,02,92,00,00,00,00,00,00,
2484663,1081827E,true,Rx,0,8,2D,8D,00,00,00,00,00,00,
2486989,1081827E,true,Rx,0,8,2E,8D,00,00,00,00,00,00,
2489293,1081827E,true,Rx,0,8,2F,8D,00,00,00,00,00,00,
2491640,1081827E,true,Rx,0,8,20,8E,00,00,00,00,00,00,
2493984,1081827E,true,Rx,0,8,21,8E,00,00,00,00,00,00,
2496286,1081827E,true,Rx,0,8,22,8E,00,00,00,00,00,00,
2498595,1081827E,true,Rx,0,8,23,8E,00,00,00,00,00,00,
2498541,108182FE,true,Tx,0,8,03,92,00,00,00,00,00,00,
2500922,1081827E,true,Rx,0,8,24,8E,00,00,00,00,00,00,
2503250,1081827E,true,Rx,0,8,25,8E,00,00,00,00,00,00,
2505575,1081827E,true,Rx,0,8,26,8E,00,00,00,00,00,00,
2507866,1081827E,true,Rx,0,8,27,8E,00,00,00,00,00,00,
2510212,1081827E,true,Rx,0,8,28,8E,00,00,00,00,00,00,
2511944,108182FE,true,Tx,0,8,04,92,00,00,00,00,00,00,
2512531,1081827E,true,Rx,0,8,29,8E,00,00,00,00,00,00,
2514118,108182FE,true,Tx,0,8,05,92,00,00,00,00,00,00,
2514845,1081827E,true,Rx,0,8,2A,8E,00,00,00,00,00,00,
2515468,108182FE,true,Tx,0,8,06,92,00,00,00,00,00,00,
2517129,1081827E,true,Rx,0,8,2B,8E,00,00,00,00,00,00,
2516705,108182FE,true,Tx,0,8,07,92,00,00,00,00,00,00,
2517845,108182FE,true,Tx,0,8,08,92,00,00,00,00,00,00,
2519467,1081827E,true,Rx,0,8,2C,8E,00,00,00,00,00,00,
2518999,108182FE,true,Tx,0,8,09,92,00,00,00,00,00,00,
2520145,108182FE,true,Tx,0,8,0A,92,00,00,00,00,00,00,
2521775,1081827E,true,Rx,0,8,2D,8E,00,00,00,00,00,00,
2521268,108182FE,true,Tx,0,8,0B,92,00,00,00,00,00,00,
2522428,108182FE,true,Tx,0,8,0C,92,00,00,00,00,00,00,
2524106,1081827E,true,Rx,0,8,2E,8E,00,00,00,00,00,00,
2523596,108182FE,true,Tx,0,8,0D,92,00,00,00,00,00,00,
2525281,1001117E,true,Rx,0,8,00,01,00,00,00,00,00,00,
2524761,108182FE,true,Tx,0,8,0E,92,00,00,00,00,00,00,
2526429,1081827E,true,Rx,0,8,2F,8E,00,00,00,00,00,00,
2525916,108182FE,true,Tx,0,8,0F,92,00,00,00,00,00,00,
2527625,108182FE,true,Tx,0,8,00,93,00,00,00,00,00,00,
2529927,1081827E,true,Rx,0,8,20,8F,00,00,00,00,00,00,
2529438,108182FE,true,Tx,0,8,01,93,00,00,00,00,00,00,
2531082,108182FE,true,Tx,0,8,02,93,00,00,00,00,00,00,
2532236,1081827E,true,Rx,0,8,21,8F,00,00,00,00,00,00,
2534568,1081827E,true,Rx,0,8,22,8F,00,00,00,00,00,00,
2534048,108182FE,true,Tx,0,8,03,93,00,00,00,00,00,00,
2535341,108182FE,true,Tx,0,8,04,93,00,00,00,00,00,00,
2536900,1081827E,true,Rx,0,8,23,8F,00,00,00,00,00,00,
2536594,108182FE,true,Tx,0,8,05,93,00,00,00,00,00,00,
2537814,108182FE,true,Tx,0,8,06,93,00,00,00,00,00,00,
2539223,1081827E,true,Rx,0,8,24,8F,00,00,00,00,00,00,
2539080,108182FE,true,Tx,0,8,07,93,00,00,00,00,00,00,
2540279,108182FE,true,Tx,0,8,08,93,00,00,00,00,00,00,
2541517,1081827E,true,Rx,0,8,25,8F,00,00,00,00,00,00,
2541494,108182FE,true,Tx,0,8,09,93,00,00,00,00,00,00,
2542674,108182FE,true,Tx,0,8,0A,93,00,00,00,00,00,00,
2543860,1081827E,true,Rx,0,8,26,8F,00,00,00,00,00,00,
2544401,108182FE,true,Tx,0,8,0B,93,00,00,00,00,00,00,
2546167,1081827E,true,Rx,0,8,27,8F,00,00,00,00,00,00,
2546010,108182FE,true,Tx,0,8,0C,93,00,00,00,00,00,00,
2547259,108182FE,true,Tx,0,8,0D,93,00,00,00,00,00,00,
2548455,1081827E,true,Rx,0,8,28,8F,00,00,00,00,00,00,
2548571,108182FE,true,Tx,0,8,0E,93,00,00,00,00,00,00,
2549847,108182FE,true,Tx,0,8,0F,93,00,00,00,00,00,00,
2550769,1081827E,true,Rx,0,8,29,8F,00,00,00,00,00,00,
2551090,108182FE,true,Tx,0,8,00,94,00,00,00,00,00,00,
2552305,108182FE,true,Tx,0,8,01,94,00,00,00,00,00,00,
2553127,1081827E,true,Rx,0,8,2A,8F,00,00,00,00,00,00,
2553517,108182FE,true,Tx,0,8,02,94,00,00,00,00,00,00,
2554718,108182FE,true,Tx,0,8,03,94,00,00,00,00,00,00,
2555455,1081827E,true,Rx,0,8,2B,8F,00,00,00,00,00,00,
2556060,108182FE,true,Tx,0,8,04,94,00,00,00,00,00,00,
2557732,1081827E,true,Rx,0,8,2C,8F,00,00,00,00,00,00,
2557350,108182FE,true,Tx,0,8,05,94,00,00,00,00,00,00,
2558633,108182FE,true,Tx,0,8,06,94,00,00,00,00,00,00,
2560044,1081827E,true,Rx,0,8,2D,8F,00,00,00,00,00,00,
2559972,108182FE,true,Tx,0,8,07,94,00,00,00,00,00,00,
2561597,108182FE,true,Tx,0,8,08,94,00,00,00,00,00,00,
2562419,1081827E,true,Rx,0,8,2E,8F,00,00,00,00,00,00,
2562856,108182FE,true,Tx,0,8,09,94,00,00,00,00,00,00,
2564149,108182FE,true,Tx,0,8,0A,94,00,00,00,00,00,00,
2564713,1081827E,true,Rx,0,8,2F,8F,00,00,00,00,00,00,
2565394,108182FE,true,Tx,0,8,0B,94,00,00,00,00,00,00,
2567067,1081827E,true,Rx,0,8,20,90,00,00,00,00,00,00,
2566618,108182FE,true,Tx,0,8,0C,94,00,00,00,00,00,00,
2567822,108182FE,true,Tx,0,8,0D,94,00,00,00,00,00,00,
2569419,1081827E,true,Rx,0,8,21,90,00,00,00,00,00,00,
2569057,108182FE,true,Tx,0,8,0E,94,00,00,00,00,00,00,
2570273,108182FE,true,Tx,0,8,0F,94,00,00,00,00,00,00,
2571687,1081827E,true,Rx,0,8,22,90,00,00,00,00,00,00,
2572865,108182FE,true,Tx,0,8,00,95,00,00,00,00,00,00,
2574029,1081827E,true,Rx,0,8,23,90,00,00,00,00,00,00,
2574226,108182FE,true,Tx,0,8,01,95,00,00,00,00,00,00,
2575657,108182FE,true,Tx,0,8,02,95,00,00,00,00,00,00,
2576424,1081827E,true,Rx,0,8,24,90,00,00,00,00,00,00,
2577378,108182FE,true,Tx,0,8,03,95,00,00,00,00,00,00,
2578653,1081827E,true,Rx,0,8,25,90,00,00,00,00,00,00,
2579950,108182FE,true,Tx,0,8,04,95,00,00,00,00,00,00,
2580998,1081827E,true,Rx,0,8,26,90,00,00,00,00,00,00,
2581317,108182FE,true,Tx,0,8,05,95,00,00,00,00,00,00,
2582577,108182FE,true,Tx,0,8,06,95,00,00,00,00,00,00,
2583323,1081827E,true,Rx,0,8,27,90,00,00,00,00,00,00,
2583857,108182FE,true,Tx,0,8,07,95,00,00,00,00,00,00,
2585648,1081827E,true,Rx,0,8,28,90,00,00,00,00,00,00,
2585120,108182FE,true,Tx,0,8,08,95,00,00,00,00,00,00,
2586446,108182FE,true,Tx,0,8,09,95,00,00,00,00,00,00,
2587979,1081827E,true,Rx,0,8,29,90,00,00,00,00,00,00,
2587685,108182FE,true,Tx,0,8,0A,95,00,00,00,00,00,00,
2588938,108182FE,true,Tx,0,8,0B,95,00,00,00,00,00,00,
2590281,1081827E,true,Rx,0,8,2A,90,00,00,00,00,00,00,
2590207,108182FE,true,Tx,0,8,0C,95,00,00,00,00,00,00,
2591439,108182FE,true,Tx,0,8,0D,95,00,00,00,00,00,00,
2592600,1081827E,true,Rx,0,8,2B,90,00,00,00,00,00,00,
2592725,108182FE,true,Tx,0,8,0E,95,00,00,00,00,00,00,
2594944,1081827E,true,Rx,0,8,2C,90,00,00,00,00,00,00,
2594506,108182FE,true,Tx,0,8,0F,95,00,00,00,00,00,00,
2595936,108182FE,true,Tx,0,8,00,96,00,00,00,00,00,00,
2597275,1081827E,true,Rx,0,8,2D,90,00,00,00,00,00,00,
2597256,108182FE,true,Tx,0,8,01,96,00,00,00,00,00,00,
2598486,108182FE,true,Tx,0,8,02,96,00,00,00,00,00,00,
2599608,1081827E,true,Rx,0,8,2E,90,00,00,00,00,00,00,
2599757,108182FE,true,Tx,0,8,03,96,00,00,00,00,00,00,
2601100,108182FE,true,Tx,0,8,04,96,00,00,00,00,00,00,
2601983,1081827E,true,Rx,0,8,2F,90,00,00,00,00,00,00,
2602333,108182FE,true,Tx,0,8,05,96,00,00,00,00,00,00,
2603558,108182FE,true,Tx,0,8,06,96,00,00,00,00,00,00,
2604292,1081827E,true,Rx,0,8,20,91,00,00,00,00,00,00,
2604748,108182FE,true,Tx,0,8,07,96,00,00,00,00,00,00,
2606589,1081827E,true,Rx,0,8,21,91,00,00,00,00,00,00,
2606041,108182FE,true,Tx,0,8,08,96,00,00,00,00,00,00,
2607329,108182FE,true,Tx,0,8,09,96,00,00,00,00,00,00,
2608906,1081827E,true,Rx,0,8,22,91,00,00,00,00,00,00,
2608714,108182FE,true,Tx,0,8,0A,96,00,00,00,00,00,00,
2610207,108182FE,true,Tx,0,8,0B,96,00,00,00,00,00,00,
2611205,1081827E,true,Rx,0,8,23,91,00,00,00,00,00,00,
2611791,108182FE,true,Tx,0,8,0C,96,00,00,00,00,00,00,
2613534,1081827E,true,Rx,0,8,24,91,00,00,00,00,00,00,
2613109,108182FE,true,Tx,0,8,0D,96,00,00,00,00,00,00,
2614445,108182FE,true,Tx,0,8,0E,96,00,00,00,00,00,00,
2615842,1081827E,true,Rx,0,8,25,91,00,00,00,00,00,00,
2615731,108182FE,true,Tx,0,8,0F,96,00,00,00,00,00,00,
2617019,108182FE,true,Tx,0,8,00,97,00,00,00,00,00,00,
2618154,1081827E,true,Rx,0,8,26,91,00,00,00,00,00,00,
2618320,108182FE,true,Tx,0,8,01,97,00,00,00,00,00,00,
2619625,108182FE,true,Tx,0,8,02,97,00,00,00,00,00,00,
2620512,1081827E,true,Rx,0,8,27,91,00,00,00,00,00,00,
2622765,1081827E,true,Rx,0,8,28,91,00,00,00,00,00,00,
2622254,108182FE,true,Tx,0,8,03,97,00,00,00,00,00,00,
2623941,1081827E,true,Rx,0,8,29,91,00,00,00,00,00,00,
2623664,108182FE,true,Tx,0,8,04,97,00,00,00,00,00,00,
2624952,108182FE,true,Tx,0,8,05,97,00,00,00,00,00,00,
2626236,108182FE,true,Tx,0,8,06,97,00,00,00,00,00,00,
2627429,1081827E,true,Rx,0,8,2A,91,00,00,00,00,00,00,
2628360,108182FE,true,Tx,0,8,07,97,00,00,00,00,00,00,
2629734,1081827E,true,Rx,0,8,2B,91,00,00,00,00,00,00,
2629845,108182FE,true,Tx,0,8,08,97,00,00,00,00,00,00,
2630882,1081827E,true,Rx,0,8,2C,91,00,00,00,00,00,00,
2631288,108182FE,true,Tx,0,8,09,97,00,00,00,00,00,00,
2632632,108182FE,true,Tx,0,8,0A,97,00,00,00,00,00,00,
2634421,1081827E,true,Rx,0,8,2D,91,00,00,00,00,00,00,
2634045,108182FE,true,Tx,0,8,0B,97,00,00,00,00,00,00,
2635470,108182FE,true,Tx,0,8,0C,97,00,00,00,00,00,00,
2636647,1081827E,true,Rx,0,8,2E,91,00,00,00,00,00,00,
2636875,108182FE,true,Tx,0,8,0D,97,00,00,00,00,00,00,
2638186,108182FE,true,Tx,0,8,0E,97,00,00,00,00,00,00,
2638982,1081827E,true,Rx,0,8,2F,91,00,00,00,00,00,00,
2639510,108182FE,true,Tx,0,8,0F,97,00,00,00,00,00,00,
2641336,1081827E,true,Rx,0,8,20,92,00,00,00,00,00,00,
2640874,108182FE,true,Tx,0,8,00,98,00,00,00,00,00,00,
2642309,108182FE,true,Tx,0,8,01,98,00,00,00,00,00,00,
2643651,1081827E,true,Rx,0,8,21,92,00,00,00,00,00,00,
2644805,1081827E,true,Rx,0,8,22,92,00,00,00,00,00,00,
2644438,108182FE,true,Tx,0,8,02,98,00,00,00,00,00,00,
2646298,108182FE,true,Tx,0,8,03,98,00,00,00,00,00,00,
2647699,108182FE,true,Tx,0,8,04,98,00,00,00,00,00,00,
2648278,1081827E,true,Rx,0,8,23,92,00,00,00,00,00,00,
2649063,108182FE,true,Tx,0,8,05,98,00,00,00,00,00,00,
2650614,1081827E,true,Rx,0,8,24,92,00,00,00,00,00,00,
2650343,108182FE,true,Tx,0,8,06,98,00,00,00,00,00,00,
2651641,108182FE,true,Tx,0,8,07,98,00,00,00,00,00,00,
2652924,1081827E,true,Rx,0,8,25,92,00,00,00,00,00,00,
2652883,108182FE,true,Tx,0,8,08,98,00,00,00,00,00,00,
2654092,1081827E,true,Rx,0,8,26,92,00,00,00,00,00,00,
2654102,108182FE,true,Tx,0,8,09,98,00,00,00,00,00,00,
2655338,108182FE,true,Tx,0,8,0A,98,00,00,00,00,00,00,
2656505,108182FE,true,Tx,0,8,0B,98,00,00,00,00,00,00,
2657552,1081827E,true,Rx,0,8,27,92,00,00,00,00,00,00,
2657691,108182FE,true,Tx,0,8,0C,98,00,00,00,00,00,00,
2658913,108182FE,true,Tx,0,8,0D,98,00,00,00,00,00,00,
2659855,1081827E,true,Rx,0,8,28,92,00,00,00,00,00,00,
2660739,108182FE,true,Tx,0,8,0E,98,00,00,00,00,00,00,
2662193,1081827E,true,Rx,0,8,29,92,00,00,00,00,00,00,
2662096,108182FE,true,Tx,0,8,0F,98,00,00,00,00,00,00,
2663409,108182FE,true,Tx,0,8,00,99,00,00,00,00,00,00,
2664687,108182FE,true,Tx,0,8,01,99,00,00,00,00,00,00,
2665640,1081827E,true,Rx,0,8,2A,92,00,00,00,00,00,00,
2665938,108182FE,true,Tx,0,8,02,99,00,00,00,00,00,00,
2667169,108182FE,true,Tx,0,8,03,99,00,00,00,00,00,00,
2667982,1081827E,true,Rx,0,8,2B,92,00,00,00,00,00,00,
2668414,108182FE,true,Tx,0,8,04,99,00,00,00,00,00,00,
2669668,108182FE,true,Tx,0,8,05,99,00,00,00,00,00,00,
2670317,1081827E,true,Rx,0,8,2C,92,00,00,00,00,00,00,
2670907,108182FE,true,Tx,0,8,06,99,00,00,00,00,00,00,
2672635,1081827E,true,Rx,0,8,2D,92,00,00,00,00,00,00,
2672164,108182FE,true,Tx,0,8,07,99,00,00,00,00,00,00,
2673361,108182FE,true,Tx,0,8,08,99,00,00,00,00,00,00,
2674997,1081827E,true,Rx,0,8,2E,92,00,00,00,00,00,00,
2674782,108182FE,true,Tx,0,8,09,99,00,00,00,00,00,00,
2676348,108182FE,true,Tx,0,8,0A,99,00,00,00,00,00,00,
2677318,1081827E,true,Rx,0,8,2F,92,00,00,00,00,00,00,
2678257,108182FE,true,Tx,0,8,0B,99,00,00,00,00,00,00,
2679578,1081827E,true,Rx,0,8,20,93,00,00,00,00,00,00,
2679665,108182FE,true,Tx,0,8,0C,99,00,00,00,00,00,00,
2680869,108182FE,true,Tx,0,8,0D,99,00,00,00,00,00,00,
2681924,1081827E,true,Rx,0,8,21,93,00,00,00,00,00,00,
2682075,108182FE,true,Tx,0,8,0E,99,00,00,00,00,00,00,
2683535,108182FE,true,Tx,0,8,0F,99,00,00,00,00,00,00,
2684260,1081827E,true,Rx,0,8,22,93,00,00,00,00,00,00,
2684785,108182FE,true,Tx,0,8,00,9A,00,00,00,00,00,00,
2686027,108182FE,true,Tx,0,8,01,9A,00,00,00,00,00,00,
2686585,1081827E,true,Rx,0,8,23,93,00,00,00,00,00,00,
2687208,108182FE,true,Tx,0,8,02,9A,00,00,00,00,00,00,
2688861,1081827E,true,Rx,0,8,24,93,00,00,00,00,00,00,
2688384,108182FE,true,Tx,0,8,03,9A,00,00,00,00,00,00,
2689576,108182FE,true,Tx,0,8,04,9A,00,00,00,00,00,00,
2691209,1081827E,true,Rx,0,8,25,93,00,00,00,00,00,00,
2690948,108182FE,true,Tx,0,8,05,9A,00,00,00,00,00,00,
2692250,108182FE,true,Tx,0,8,06,9A,00,00,00,00,00,00,
2693527,1081827E,true,Rx,0,8,26,93,00,00,00,00,00,00,
2693895,108182FE,true,Tx,0,8,07,9A,00,00,00,00,00,00,
2695805,1081827E,true,Rx,0,8,27,93,00,00,00,00,00,00,
2695485,108182FE,true,Tx,0,8,08,9A,00,00,00,00,00,00,
2696893,108182FE,true,Tx,0,8,09,9A,00,00,00,00,00,00,
2698145,1081827E,true,Rx,0,8,28,93,00,00,00,00,00,00,
2698111,108182FE,true,Tx,0,8,0A,9A,00,00,00,00,00,00,
2699288,108182FE,true,Tx,0,8,0B,9A,00,00,00,00,00,00,
2700463,1081827E,true,Rx,0,8,29,93,00,00,00,00,00,00,
2700450,108182FE,true,Tx,0,8,0C,9A,00,00,00,00,00,00,
2701603,108182FE,true,Tx,0,8,0D,9A,00,00,00,00,00,00,
2702753,1081827E,true,Rx,0,8,2A,93,00,00,00,00,00,00,
2702755,108182FE,true,Tx,0,8,0E,9A,00,00,00,00,00,00,
2703905,108182FE,true,Tx,0,8,0F,9A,00,00,00,00,00,00,
2705089,1081827E,true,Rx,0,8,2B,93,00,00,00,00,00,00,
2705083,108182FE,true,Tx,0,8,00,9B,00,00,00,00,00,00,
2706420,108182FE,true,Tx,0,8,01,9B,00,00,00,00,00,00,
2707421,1081827E,true,Rx,0,8,2C,93,00,00,00,00,00,00,
2707785,108182FE,true,Tx,0,8,02,9B,00,00,00,00,00,00,
2709749,1081827E,true,Rx,0,8,2D,93,00,00,00,00,00,00,
2709250,108182FE,true,Tx,0,8,03,9B,00,00,00,00,00,00,
2710916,108182FE,true,Tx,0,8,04,9B,00,00,00,00,00,00,
2712032,1081827E,true,Rx,0,8,2E,93,00,00,00,00,00,00,
2712193,108182FE,true,Tx,0,8,05,9B,00,00,00,00,00,00,
2713395,108182FE,true,Tx,0,8,06,9B,00,00,00,00,00,00,
2714415,1081827E,true,Rx,0,8,2F,93,00,00,00,00,00,00,
2714589,108182FE,true,Tx,0,8,07,9B,00,00,00,00,00,00,
2715773,108182FE,true,Tx,0,8,08,9B,00,00,00,00,00,00,
2716748,1081827E,true,Rx,0,8,20,94,00,00,00,00,00,00,
2716942,108182FE,true,Tx,0,8,09,9B,00,00,00,00,00,00,
2718097,108182FE,true,Tx,0,8,0A,9B,00,00,00,00,00,00,
2719090,1081827E,true,Rx,0,8,21,94,00,00,00,00,00,00,
2721433,1081827E,true,Rx,0,8,22,94,00,00,00,00,00,00,
2723750,1081827E,true,Rx,0,8,23,94,00,00,00,00,00,00,
2726042,1081827E,true,Rx,0,8,24,94,00,00,00,00,00,00,
2728460,1081827E,true,Rx,0,8,25,94,00,00,00,00,00,00,
2732089,108182FE,true,Tx,0,8,0B,9B,00,00,00,00,00,00,
2733041,1081827E,true,Rx,0,8,26,94,00,00,00,00,00,00,
2733042,100011FE,true,Rx,0,8,00,02,00,00,00,00,00,00,
2733043,1081827E,true,Rx,0,8,27,94,00,00,00,00,00,00,
2736532,1081827E,true,Rx,0,8,28,94,00,00,00,00,00,00,
2738870,1081827E,true,Rx,0,8,29,94,00,00,00,00,00,00,
2741154,1081827E,true,Rx,0,8,2A,94,00,00,00,00,00,00,
2743529,1081827E,true,Rx,0,8,2B,94,00,00,00,00,00,00,
2745806,1081827E,true,Rx,0,8,2C,94,00,00,00,00,00,00,
2748153,1081827E,true,Rx,0,8,2D,94,00,00,00,00,00,00,
2748196,108182FE,true,Tx,0,8,0C,9B,00,00,00,00,00,00,
2749676,108182FE,true,Tx,0,8,0D,9B,00,00,00,00,00,00,
2750523,1081827E,true,Rx,0,8,2E,94,00,00,00,00,00,00,
2751069,108182FE,true,Tx,0,8,0E,9B,00,00,00,00,00,00,
2752811,1081827E,true,Rx,0,8,2F,94,00,00,00,00,00,00,
2752400,108182FE,true,Tx,0,8,0F,9B,00,00,00,00,00,00,
2753729,108182FE,true,Tx,0,8,00,9C,00,00,00,00,00,00,
2755153,1081827E,true,Rx,0,8,20,95,00,00,00,00,00,00,
2755173,108182FE,true,Tx,0,8,01,9C,00,00,00,00,00,00,
2756454,108182FE,true,Tx,0,8,02,9C,00,00,00,00,00,00,
2757460,1081827E,true,Rx,0,8,21,95,00,00,00,00,00,00,
2757925,108182FE,true,Tx,0,8,03,9C,00,00,00,00,00,00,
2759765,1081827E,true,Rx,0,8,22,95,00,00,00,00,00,00,
2759232,108182FE,true,Tx,0,8,04,9C,00,00,00,00,00,00,
2761052,108182FE,true,Tx,0,8,05,9C,00,00,00,00,00,00,
2762099,1081827E,true,Rx,0,8,23,95,00,00,00,00,00,00,
2762713,108182FE,true,Tx,0,8,06,9C,00,00,00,00,00,00,
2764459,1081827E,true,Rx,0,8,24,95,00,00,00,00,00,00,
2764371,108182FE,true,Tx,0,8,07,9C,00,00,00,00,00,00,
2766752,1081827E,true,Rx,0,8,25,95,00,00,00,00,00,00,
2768006,108182FE,true,Tx,0,8,08,9C,00,00,00,00,00,00,
2769041,1081827E,true,Rx,0,8,26,95,00,00,00,00,00,00,
2769380,108182FE,true,Tx,0,8,09,9C,00,00,00,00,00,00,
2770687,108182FE,true,Tx,0,8,0A,9C,00,00,00,00,00,00,
2771418,1081827E,true,Rx,0,8,27,95,00,00,00,00,00,00,
2771931,108182FE,true,Tx,0,8,0B,9C,00,00,00,00,00,00,
2773701,1081827E,true,Rx,0,8,28,95,00,00,00,00,00,00,
2773182,108182FE,true,Tx,0,8,0C,9C,00,00,00,00,00,00,
2774385,108182FE,true,Tx,0,8,0D,9C,00,00,00,00,00,00,
2775982,1081827E,true,Rx,0,8,29,95,00,00,00,00,00,00,
2775624,108182FE,true,Tx,0,8,0E,9C,00,00,00,00,00,00,
2777017,108182FE,true,Tx,0,8,0F,9C,00,00,00,00,00,00,
2778318,1081827E,true,Rx,0,8,2A,95,00,00,00,00,00,00,
2778295,108182FE,true,Tx,0,8,00,9D,00,00,00,00,00,00,
2779530,108182FE,true,Tx,0,8,01,9D,00,00,00,00,00,00,
2780640,1081827E,true,Rx,0,8,2B,95,00,00,00,00,00,00,
2780773,108182FE,true,Tx,0,8,02,9D,00,00,00,00,00,00,
2781937,108182FE,true,Tx,0,8,03,9D,00,00,00,00,00,00,
2782923,1081827E,true,Rx,0,8,2C,95,00,00,00,00,00,00,
2783170,108182FE,true,Tx,0,8,04,9D,00,00,00,00,00,00,
2784364,108182FE,true,Tx,0,8,05,9D,00,00,00,00,00,00,
2785265,1081827E,true,Rx,0,8,2D,95,00,00,00,00,00,00,
2785570,108182FE,true,Tx,0,8,06,9D,00,00,00,00,00,00,
2786740,108182FE,true,Tx,0,8,07,9D,00,00,00,00,00,00,
2787585,1081827E,true,Rx,0,8,2E,95,00,00,00,00,00,00,
2788059,108182FE,true,Tx,0,8,08,9D,00,00,00,00,00,00,
2789246,108182FE,true,Tx,0,8,09,9D,00,00,00,00,00,00,
2789920,1081827E,true,Rx,0,8,2F,95,00,00,00,00,00,00,
2790461,108182FE,true,Tx,0,8,0A,9D,00,00,00,00,00,00,
2791601,108182FE,true,Tx,0,8,0B,9D,00,00,00,00,00,00,
2792267,1081827E,true,Rx,0,8,20,96,00,00,00,00,00,00,
2792875,108182FE,true,Tx,0,8,0C,9D,00,00,00,00,00,00,
2794583,1081827E,true,Rx,0,8,21,96,00,00,00,00,00,00,
2794573,108182FE,true,Tx,0,8,0D,9D,00,00,00,00,00,00,
2796006,108182FE,true,Tx,0,8,0E,9D,00,00,00,00,00,00,
2796862,1081827E,true,Rx,0,8,22,96,00,00,00,00,00,00,
2797278,108182FE,true,Tx,0,8,0F,9D,00,00,00,00,00,00,
2798526,108182FE,true,Tx,0,8,00,9E,00,00,00,00,00,00,
2799204,1081827E,true,Rx,0,8,23,96,00,00,00,00,00,00,
2799757,108182FE,true,Tx,0,8,01,9E,00,00,00,00,00,00,
2801529,1081827E,true,Rx,0,8,24,96,00,00,00,00,00,00,
2801033,108182FE,true,Tx,0,8,02,9E,00,00,00,00,00,00,
2802330,108182FE,true,Tx,0,8,03,9E,00,00,00,00,00,00,
2803812,1081827E,true,Rx,0,8,25,96,00,00,00,00,00,00,
2803601,108182FE,true,Tx,0,8,04,9E,00,00,00,00,00,00,
2804884,108182FE,true,Tx,0,8,05,9E,00,00,00,00,00,00,
2806150,1081827E,true,Rx,0,8,26,96,00,00,00,00,00,00,
2806359,108182FE,true,Tx,0,8,06,9E,00,00,00,00,00,00,
2807651,108182FE,true,Tx,0,8,07,9E,00,00,00,00,00,00,
2808466,1081827E,true,Rx,0,8,27,96,00,00,00,00,00,00,
2808929,108182FE,true,Tx,0,8,08,9E,00,00,00,00,00,00,
2810783,1081827E,true,Rx,0,8,28,96,00,00,00,00,00,00,
2810621,108182FE,true,Tx,0,8,09,9E,00,00,00,00,00,00,
2811918,108182FE,true,Tx,0,8,0A,9E,00,00,00,00,00,00,
2813094,1081827E,true,Rx,0,8,29,96,00,00,00,00,00,00,
2813385,108182FE,true,Tx,0,8,0B,9E,00,00,00,00,00,00,
2814583,108182FE,true,Tx,0,8,0C,9E,00,00,00,00,00,00,
2815423,1081827E,true,Rx,0,8,2A,96,00,00,00,00,00,00,
2815809,108182FE,true,Tx,0,8,0D,9E,00,00,00,00,00,00,
2817079,108182FE,true,Tx,0,8,0E,9E,00,00,00,00,00,00,
2817751,1081827E,true,Rx,0,8,2B,96,00,00,00,00,00,00,
2818327,108182FE,true,Tx,0,8,0F,9E,00,00,00,00,00,00,
2820033,1081827E,true,Rx,0,8,2C,96,00,00,00,00,00,00,
2819545,108182FE,true,Tx,0,8,00,9F,00,00,00,00,00,00,
2820723,108182FE,true,Tx,0,8,01,9F,00,00,00,00,00,00,
2822461,1081827E,true,Rx,0,8,2D,96,00,00,00,00,00,00,
2822059,108182FE,true,Tx,0,8,02,9F,00,00,00,00,00,00,
2823368,108182FE,true,Tx,0,8,03,9F,00,00,00,00,00,00,
2824672,108182FE,true,Tx,0,8,04,9F,00,00,00,00,00,00,
2825871,1081827E,true,Rx,0,8,2E,96,00,00,00,00,00,00,
2825872,1081827E,true,Rx,0,8,2F,96,00,00,00,00,00,00,
2825912,108182FE,true,Tx,0,8,05,9F,00,00,00,00,00,00,
2827838,108182FE,true,Tx,0,8,06,9F,00,00,00,00,00,00,
2829423,1081827E,true,Rx,0,8,20,97,00,00,00,00,00,00,
2829173,108182FE,true,Tx,0,8,07,9F,00,00,00,00,00,00,
2830395,108182FE,true,Tx,0,8,08,9F,00,00,00,00,00,00,
2831691,1081827E,true,Rx,0,8,21,97,00,00,00,00,00,00,
2831642,108182FE,true,Tx,0,8,09,9F,00,00,00,00,00,00,
2832792,108182FE,true,Tx,0,8,0A,9F,00,00,00,00,00,00,
2833979,1081827E,true,Rx,0,8,22,97,00,00,00,00,00,00,
2833955,108182FE,true,Tx,0,8,0B,9F,00,00,00,00,00,00,
2835262,108182FE,true,Tx,0,8,0C,9F,00,00,00,00,00,00,
2836519,108182FE,true,Tx,0,8,0D,9F,00,00,00,00,00,00,
2837460,1081827E,true,Rx,0,8,23,97,00,00,00,00,00,00,
2837461,1081827E,true,Rx,0,8,24,97,00,00,00,00,00,00,
2837747,108182FE,true,Tx,0,8,0E,9F,00,00,00,00,00,00,
2838911,108182FE,true,Tx,0,8,0F,9F,00,00,00,00,00,00,
2840107,108182FE,true,Tx,0,8,00,A0,00,00,00,00,00,00,
2840930,1081827E,true,Rx,0,8,25,97,00,00,00,00,00,00,
2841310,108182FE,true,Tx,0,8,01,A0,00,00,00,00,00,00,
2842528,108182FE,true,Tx,0,8,02,A0,00,00,00,00,00,00,
2843229,1081827E,true,Rx,0,8,26,97,00,00,00,00,00,00,
2844094,108182FE,true,Tx,0,8,03,A0,00,00,00,00,00,00,
2845534,1081827E,true,Rx,0,8,27,97,00,00,00,00,00,00,
2845356,108182FE,true,Tx,0,8,04,A0,00,00,00,00,00,00,
2846586,108182FE,true,Tx,0,8,05,A0,00,00,00,00,00,00,
2847870,1081827E,true,Rx,0,8,28,97,00,00,00,00,00,00,
2847745,108182FE,true,Tx,0,8,06,A0,00,00,00,00,00,00,
2848914,108182FE,true,Tx,0,8,07,A0,00,00,00,00,00,00,
2850166,1081827E,true,Rx,0,8,29,97,00,00,00,00,00,00,
2850067,108182FE,true,Tx,0,8,08,A0,00,00,00,00,00,00,
2851213,108182FE,true,Tx,0,8,09,A0,00,00,00,00,00,00,
2852466,1081827E,true,Rx,0,8,2A,97,00,00,00,00,00,00,
2852313,108182FE,true,Tx,0,8,0A,A0,00,00,00,00,00,00,
2853442,108182FE,true,Tx,0,8,0B,A0,00,00,00,00,00,00,
2854826,1081827E,true,Rx,0,8,2B,97,00,00,00,00,00,00,
2854617,108182FE,true,Tx,0,8,0C,A0,00,00,00,00,00,00,
2855733,108182FE,true,Tx,0,8,0D,A0,00,00,00,00,00,00,
2857104,1081827E,true,Rx,0,8,2C,97,00,00,00,00,00,00,
2856953,108182FE,true,Tx,0,8,0E,A0,00,00,00,00,00,00,
2858212,108182FE,true,Tx,0,8,0F,A0,00,00,00,00,00,00,
2859425,1081827E,true,Rx,0,8,2D,97,00,00,00,00,00,00,
2859445,108182FE,true,Tx,0,8,00,A1,00,00,00,00,00,00,
2860870,108182FE,true,Tx,0,8,01,A1,00,00,00,00,00,00,
2861761,1081827E,true,Rx,0,8,2E,97,00,00,00,00,00,00,
2862158,108182FE,true,Tx,0,8,02,A1,00,00,00,00,00,00,
2863309,108182FE,true,Tx,0,8,03,A1,00,00,00,00,00,00,
2864105,1081827E,true,Rx,0,8,2F,97,00,00,00,00,00,00,
2864505,108182FE,true,Tx,0,8,04,A1,00,00,00,00,00,00,
2865621,108182FE,true,Tx,0,8,05,A1,00,00,00,00,00,00,
2866421,1081827E,true,Rx,0,8,20,98,00,00,00,00,00,00,
2866815,108182FE,true,Tx,0,8,06,A1,00,00,00,00,00,00,
2867905,108182FE,true,Tx,0,8,07,A1,00,00,00,00,00,00,
2868762,1081827E,true,Rx,0,8,21,98,00,00,00,00,00,00,
2869080,108182FE,true,Tx,0,8,08,A1,00,00,00,00,00,00,
2870167,108182FE,true,Tx,0,8,09,A1,00,00,00,00,00,00,
2871102,1081827E,true,Rx,0,8,22,98,00,00,00,00,00,00,
2871327,108182FE,true,Tx,0,8,0A,A1,00,00,00,00,00,00,
2872432,108182FE,true,Tx,0,8,0B,A1,00,00,00,00,00,00,
2873425,1081827E,true,Rx,0,8,23,98,00,00,00,00,00,00,
2873798,108182FE,true,Tx,0,8,0C,A1,00,00,00,00,00,00,
2875060,108182FE,true,Tx,0,8,0D,A1,00,00,00,00,00,00,
2875768,1081827E,true,Rx,0,8,24,98,00,00,00,00,00,00,
2876372,108182FE,true,Tx,0,8,0E,A1,00,00,00,00,00,00,
2878099,1081827E,true,Rx,0,8,25,98,00,00,00,00,00,00,
2877832,108182FE,true,Tx,0,8,0F,A1,00,00,00,00,00,00,
2879042,108182FE,true,Tx,0,8,00,A2,00,00,00,00,00,00,
2880422,1081827E,true,Rx,0,8,26,98,00,00,00,00,00,00,
2880299,108182FE,true,Tx,0,8,01,A2,00,00,00,00,00,00,
2881457,108182FE,true,Tx,0,8,02,A2,00,00,00,00,00,00,
2882706,1081827E,true,Rx,0,8,27,98,00,00,00,00,00,00,
2882583,108182FE,true,Tx,0,8,03,A2,00,00,00,00,00,00,
2883693,108182FE,true,Tx,0,8,04,A2,00,00,00,00,00,00,
2885056,1081827E,true,Rx,0,8,28,98,00,00,00,00,00,00,
2884806,108182FE,true,Tx,0,8,05,A2,00,00,00,00,00,00,
2885923,108182FE,true,Tx,0,8,06,A2,00,00,00,00,00,00,
2887424,1081827E,true,Rx,0,8,29,98,00,00,00,00,00,00,
2887067,108182FE,true,Tx,0,8,07,A2,00,00,00,00,00,00,
2888187,108182FE,true,Tx,0,8,08,A2,00,00,00,00,00,00,
2889706,1081827E,true,Rx,0,8,2A,98,00,00,00,00,00,00,
2889332,108182FE,true,Tx,0,8,09,A2,00,00,00,00,00,00,
2891022,108182FE,true,Tx,0,8,0A,A2,00,00,00,00,00,00,
2892045,1081827E,true,Rx,0,8,2B,98,00,00,00,00,00,00,
2892438,108182FE,true,Tx,0,8,0B,A2,00,00,00,00,00,00,
2894414,1081827E,true,Rx,0,8,2C,98,00,00,00,00,00,00,
2894100,108182FE,true,Tx,0,8,0C,A2,00,00,00,00,00,00,
2895366,108182FE,true,Tx,0,8,0D,A2,00,00,00,00,00,00,
2896711,1081827E,true,Rx,0,8,2D,98,00,00,00,00,00,00,
2896610,108182FE,true,Tx,0,8,0E,A2,00,00,00,00,00,00,
2897736,108182FE,true,Tx,0,8,0F,A2,00,00,00,00,00,00,
2898994,1081827E,true,Rx,0,8,2E,98,00,00,00,00,00,00,
2898862,108182FE,true,Tx,0,8,00,A3,00,00,00,00,00,00,
2899976,108182FE,true,Tx,0,8,01,A3,00,00,00,00,00,00,
2901420,1081827E,true,Rx,0,8,2F,98,00,00,00,00,00,00,
2901093,108182FE,true,Tx,0,8,02,A3,00,00,00,00,00,00,
2902220,108182FE,true,Tx,0,8,03,A3,00,00,00,00,00,00,
2903650,1081827E,true,Rx,0,8,20,99,00,00,00,00,00,00,
2903378,108182FE,true,Tx,0,8,04,A3,00,00,00,00,00,00,
2904504,108182FE,true,Tx,0,8,05,A3,00,00,00,00,00,00,
2905998,1081827E,true,Rx,0,8,21,99,00,00,00,00,00,00,
2905638,108182FE,true,Tx,0,8,06,A3,00,00,00,00,00,00,
2906782,108182FE,true,Tx,0,8,07,A3,00,00,00,00,00,00,
2908285,1081827E,true,Rx,0,8,22,99,00,00,00,00,00,00,
2908088,108182FE,true,Tx,0,8,08,A3,00,00,00,00,00,00,
2909238,108182FE,true,Tx,0,8,09,A3,00,00,00,00,00,00,
2910650,1081827E,true,Rx,0,8,23,99,00,00,00,00,00,00,
2910707,108182FE,true,Tx,0,8,0A,A3,00,00,00,00,00,00,
2912062,108182FE,true,Tx,0,8,0B,A3,00,00,00,00,00,00,
2912932,1081827E,true,Rx,0,8,24,99,00,00,00,00,00,00,
2913225,108182FE,true,Tx,0,8,0C,A3,00,00,00,00,00,00,
2914377,108182FE,true,Tx,0,8,0D,A3,00,00,00,00,00,00,
2915224,1081827E,true,Rx,0,8,25,99,00,00,00,00,00,00,
2915528,108182FE,true,Tx,0,8,0E,A3,00,00,00,00,00,00,
2916709,108182FE,true,Tx,0,8,0F,A3,00,00,00,00,00,00,
2917535,1081827E,true,Rx,0,8,26,99,00,00,00,00,00,00,
2918002,108182FE,true,Tx,0,8,00,A4,00,00,00,00,00,00,
2919180,108182FE,true,Tx,0,8,01,A4,00,00,00,00,00,00,
2919879,1081827E,true,Rx,0,8,27,99,00,00,00,00,00,00,
2920334,108182FE,true,Tx,0,8,02,A4,00,00,00,00,00,00,
2921474,108182FE,true,Tx,0,8,03,A4,00,00,00,00,00,00,
2922660,108182FE,true,Tx,0,8,04,A4,00,00,00,00,00,00,
2923883,108182FE,true,Tx,0,8,05,A4,00,00,00,00,00,00,
2924530,1081827E,true,Rx,0,8,28,99,00,00,00,00,00,00,
2924530,1001117E,true,Rx,0,8,00,01,00,00,00,00,00,00,
2924531,1081827E,true,Rx,0,8,29,99,00,00,00,00,00,00,
2925029,108182FE,true,Tx,0,8,06,A4,00,00,00,00,00,00,
2926396,108182FE,true,Tx,0,8,07,A4,00,00,00,00,00,00,
2927985,1081827E,true,Rx,0,8,2A,99,00,00,00,00,00,00,
2927830,108182FE,true,Tx,0,8,08,A4,00,00,00,00,00,00,
2929049,108182FE,true,Tx,0,8,09,A4,00,00,00,00,00,00,
2930279,1081827E,true,Rx,0,8,2B,99,00,00,00,00,00,00,
2930245,108182FE,true,Tx,0,8,0A,A4,00,00,00,00,00,00,
2931384,108182FE,true,Tx,0,8,0B,A4,00,00,00,00,00,00,
2932592,1081827E,true,Rx,0,8,2C,99,00,00,00,00,00,00,
2932556,108182FE,true,Tx,0,8,0C,A4,00,00,00,00,00,00,
2933680,108182FE,true,Tx,0,8,0D,A4,00,00,00,00,00,00,
2934943,1081827E,true,Rx,0,8,2D,99,00,00,00,00,00,00,
2934854,108182FE,true,Tx,0,8,0E,A4,00,00,00,00,00,00,
2935971,108182FE,true,Tx,0,8,0F,A4,00,00,00,00,00,00,
2937232,1081827E,true,Rx,0,8,2E,99,00,00,00,00,00,00,
2937108,108182FE,true,Tx,0,8,00,A5,00,00,00,00,00,00,
2938264,108182FE,true,Tx,0,8,01,A5,00,00,00,00,00,00,
2939597,1081827E,true,Rx,0,8,2F,99,00,00,00,00,00,00,
2939587,108182FE,true,Tx,0,8,02,A5,00,00,00,00,00,00,
2940752,108182FE,true,Tx,0,8,03,A5,00,00,00,00,00,00,
2941934,1081827E,true,Rx,0,8,20,9A,00,00,00,00,00,00,
2941971,108182FE,true,Tx,0,8,04,A5,00,00,00,00,00,00,
2943558,108182FE,true,Tx,0,8,05,A5,00,00,00,00,00,00,
2944218,1081827E,true,Rx,0,8,21,9A,00,00,00,00,00,00,
2944850,108182FE,true,Tx,0,8,06,A5,00,00,00,00,00,00,
2946535,1081827E,true,Rx,0,8,22,9A,00,00,00,00,00,00,
2946623,108182FE,true,Tx,0,8,07,A5,00,00,00,00,00,00,
2947865,108182FE,true,Tx,0,8,08,A5,00,00,00,00,00,00,
2948879,1081827E,true,Rx,0,8,23,9A,00,00,00,00,00,00,
2949028,108182FE,true,Tx,0,8,09,A5,00,00,00,00,00,00,
2950202,108182FE,true,Tx,0,8,0A,A5,00,00,00,00,00,00,
2951438,108182FE,true,Tx,0,8,0B,A5,00,00,00,00,00,00,
2952425,1081827E,true,Rx,0,8,24,9A,00,00,00,00,00,00,
2952426,1081827E,true,Rx,0,8,25,9A,00,00,00,00,00,00,
2952647,108182FE,true,Tx,0,8,0C,A5,00,00,00,00,00,00,
2953759,108182FE,true,Tx,0,8,0D,A5,00,00,00,00,00,00,
2954902,108182FE,true,Tx,0,8,0E,A5,00,00,00,00,00,00,
2955829,1081827E,true,Rx,0,8,26,9A,00,00,00,00,00,00,
2956042,108182FE,true,Tx,0,8,0F,A5,00,00,00,00,00,00,
2957250,108182FE,true,Tx,0,8,00,A6,00,00,00,00,00,00,
2958112,1081827E,true,Rx,0,8,27,9A,00,00,00,00,00,00,
2958406,108182FE,true,Tx,0,8,01,A6,00,00,00,00,00,00,
2960467,1081827E,true,Rx,0,8,28,9A,00,00,00,00,00,00,
2959896,108182FE,true,Tx,0,8,02,A6,00,00,00,00,00,00,
2961398,108182FE,true,Tx,0,8,03,A6,00,00,00,00,00,00,
2962766,1081827E,true,Rx,0,8,29,9A,00,00,00,00,00,00,
2962678,108182FE,true,Tx,0,8,04,A6,00,00,00,00,00,00,
2963867,108182FE,true,Tx,0,8,05,A6,00,00,00,00,00,00,
2965108,1081827E,true,Rx,0,8,2A,9A,00,00,00,00,00,00,
2965045,108182FE,true,Tx,0,8,06,A6,00,00,00,00,00,00,
2966214,108182FE,true,Tx,0,8,07,A6,00,00,00,00,00,00,
2967428,1081827E,true,Rx,0,8,2B,9A,00,00,00,00,00,00,
2967400,108182FE,true,Tx,0,8,08,A6,00,00,00,00,00,00,
2968819,108182FE,true,Tx,0,8,09,A6,00,00,00,00,00,00,
2969717,1081827E,true,Rx,0,8,2C,9A,00,00,00,00,00,00,
2972055,1081827E,true,Rx,0,8,2D,9A,00,00,00,00,00,00,
2974431,1081827E,true,Rx,0,8,2E,9A,00,00,00,00,00,00,
2976708,1081827E,true,Rx,0,8,2F,9A,00,00,00,00,00,00,
2979049,1081827E,true,Rx,0,8,20,9B,00,00,00,00,00,00,
2981426,1081827E,true,Rx,0,8,21,9B,00,00,00,00,00,00,
2982167,108182FE,true,Tx,0,8,0A,A6,00,00,00,00,00,00,
2983652,1081827E,true,Rx,0,8,22,9B,00,00,00,00,00,00,
2985997,1081827E,true,Rx,0,8,23,9B,00,00,00,00,00,00,
2989468,1081827E,true,Rx,0,8,24,9B,00,00,00,00,00,00,
2989469,1081827E,true,Rx,0,8,25,9B,00,00,00,00,00,00,
2992944,1081827E,true,Rx,0,8,26,9B,00,00,00,00,00,00,
2995239,1081827E,true,Rx,0,8,27,9B,00,00,00,00,00,00,
2997557,1081827E,true,Rx,0,8,28,9B,00,00,00,00,00,00,
2999879,1081827E,true,Rx,0,8,29,9B,00,00,00,00,00,00,
3000772,108182FE,true,Tx,0,8,0B,A6,00,00,00,00,00,00,
3002163,1081827E,true,Rx,0,8,2A,9B,00,00,00,00,00,00,
3002115,108182FE,true,Tx,0,8,0C,A6,00,00,00,00,00,00,
3003346,108182FE,true,Tx,0,8,0D,A6,00,00,00,00,00,00,
3004472,1081827E,true,Rx,0,8,2B,9B,00,00,00,00,00,00,
3004555,108182FE,true,Tx,0,8,0E,A6,00,00,00,00,00,00,
3005800,108182FE,true,Tx,0,8,0F,A6,00,00,00,00,00,00,
3006827,1081827E,true,Rx,0,8,2C,9B,00,00,00,00,00,00,
3007124,108182FE,true,Tx,0,8,00,A7,00,00,00,00,00,00,
3008395,108182FE,true,Tx,0,8,01,A7,00,00,00,00,00,00,
3009111,1081827E,true,Rx,0,8,2D,9B,00,00,00,00,00,00,
3010291,108182FE,true,Tx,0,8,02,A7,00,00,00,00,00,00,
3011469,1081827E,true,Rx,0,8,2E,9B,00,00,00,00,00,00,
3012454,108182FE,true,Tx,0,8,03,A7,00,00,00,00,00,00,
3013815,1081827E,true,Rx,0,8,2F,9B,00,00,00,00,00,00,
3014579,108182FE,true,Tx,0,8,04,A7,00,00,00,00,00,00,
3016102,1081827E,true,Rx,0,8,20,9C,00,00,00,00,00,00,
3015970,108182FE,true,Tx,0,8,05,A7,00,00,00,00,00,00,
3017075,108182FE,true,Tx,0,8,06,A7,00,00,00,00,00,00,
3018467,1081827E,true,Rx,0,8,21,9C,00,00,00,00,00,00,
3018200,108182FE,true,Tx,0,8,07,A7,00,00,00,00,00,00,
3019274,108182FE,true,Tx,0,8,08,A7,00,00,00,00,00,00,
3020771,1081827E,true,Rx,0,8,22,9C,00,00,00,00,00,00,
3020380,108182FE,true,Tx,0,8,09,A7,00,00,00,00,00,00,
3021447,108182FE,true,Tx,0,8,0A,A7,00,00,00,00,00,00,
3023115,1081827E,true,Rx,0,8,23,9C,00,00,00,00,00,00,
3022549,108182FE,true,Tx,0,8,0B,A7,00,00,00,00,00,00,
3023644,108182FE,true,Tx,0,8,0C,A7,00,00,00,00,00,00,
3024820,108182FE,true,Tx,0,8,0D,A7,00,00,00,00,00,00,
3025468,1081827E,true,Rx,0,8,24,9C,00,00,00,00,00,00,
3026285,108182FE,true,Tx,0,8,0E,A7,00,00,00,00,00,00,
3027766,1081827E,true,Rx,0,8,25,9C,00,00,00,00,00,00,
3027676,108182FE,true,Tx,0,8,0F,A7,00,00,00,00,00,00,
3028872,108182FE,true,Tx,0,8,00,A8,00,00,00,00,00,00,
3030108,1081827E,true,Rx,0,8,26,9C,00,00,00,00,00,00,
3030020,108182FE,true,Tx,0,8,01,A8,00,00,00,00,00,00,
3031172,108182FE,true,Tx,0,8,02,A8,00,00,00,00,00,00,
3032431,1081827E,true,Rx,0,8,27,9C,00,00,00,00,00,00,
3032298,108182FE,true,Tx,0,8,03,A8,00,00,00,00,00,00,
3033413,108182FE,true,Tx,0,8,04,A8,00,00,00,00,00,00,
3034772,1081827E,true,Rx,0,8,28,9C,00,00,00,00,00,00,
3034520,108182FE,true,Tx,0,8,05,A8,00,00,00,00,00,00,
3035624,108182FE,true,Tx,0,8,06,A8,00,00,00,00,00,00,
3037116,1081827E,true,Rx,0,8,29,9C,00,00,00,00,00,00,
3036716,108182FE,true,Tx,0,8,07,A8,00,00,00,00,00,00,
3037891,108182FE,true,Tx,0,8,08,A8,00,00,00,00,00,00,
3039424,1081827E,true,Rx,0,8,2A,9C,00,00,00,00,00,00,
3039450,108182FE,true,Tx,0,8,09,A8,00,00,00,00,00,00,
3040710,108182FE,true,Tx,0,8,0A,A8,00,00,00,00,00,00,
3041770,1081827E,true,Rx,0,8,2B,9C,00,00,00,00,00,00,
3042307,108182FE,true,Tx,0,8,0B,A8,00,00,00,00,00,00,
3044126,1081827E,true,Rx,0,8,2C,9C,00,00,00,00,00,00,
3043850,108182FE,true,Tx,0,8,0C,A8,00,00,00,00,00,00,
3045225,108182FE,true,Tx,0,8,0D,A8,00,00,00,00,00,00,
3046462,1081827E,true,Rx,0,8,2D,9C,00,00,00,00,00,00,
3046506,108182FE,true,Tx,0,8,0E,A8,00,00,00,00,00,00,
3047720,108182FE,true,Tx,0,8,0F,A8,00,00,00,00,00,00,
3048773,1081827E,true,Rx,0,8,2E,9C,00,00,00,00,00,00,
3049032,108182FE,true,Tx,0,8,00,A9,00,00,00,00,00,00,
3050333,108182FE,true,Tx,0,8,01,A9,00,00,00,00,00,00,
3051123,1081827E,true,Rx,0,8,2F,9C,00,00,00,00,00,00,
3051543,108182FE,true,Tx,0,8,02,A9,00,00,00,00,00,00,
3052735,108182FE,true,Tx,0,8,03,A9,00,00,00,00,00,00,
3053429,1081827E,true,Rx,0,8,20,9D,00,00,00,00,00,00,
3053932,108182FE,true,Tx,0,8,04,A9,00,00,00,00,00,00,
3055713,1081827E,true,Rx,0,8,21,9D,00,00,00,00,00,00,
3055399,108182FE,true,Tx,0,8,05,A9,00,00,00,00,00,00,
3056836,108182FE,true,Tx,0,8,06,A9,00,00,00,00,00,00,
3058064,1081827E,true,Rx,0,8,22,9D,00,00,00,00,00,00,
3058175,108182FE,true,Tx,0,8,07,A9,00,00,00,00,00,00,
3060422,1081827E,true,Rx,0,8,23,9D,00,00,00,00,00,00,
3059920,108182FE,true,Tx,0,8,08,A9,00,00,00,00,00,00,
3061192,108182FE,true,Tx,0,8,09,A9,00,00,00,00,00,00,
3062654,1081827E,true,Rx,0,8,24,9D,00,00,00,00,00,00,
3062491,108182FE,true,Tx,0,8,0A,A9,00,00,00,00,00,00,
3063701,108182FE,true,Tx,0,8,0B,A9,00,00,00,00,00,00,
3064996,1081827E,true,Rx,0,8,25,9D,00,00,00,00,00,00,
3065292,108182FE,true,Tx,0,8,0C,A9,00,00,00,00,00,00,
3066474,108182FE,true,Tx,0,8,0D,A9,00,00,00,00,00,00,
3067284,1081827E,true,Rx,0,8,26,9D,00,00,00,00,00,00,
3067740,108182FE,true,Tx,0,8,0E,A9,00,00,00,00,00,00,
3068916,108182FE,true,Tx,0,8,0F,A9,00,00,00,00,00,00,
3069607,1081827E,true,Rx,0,8,27,9D,00,00,00,00,00,00,
3070283,108182FE,true,Tx,0,8,00,AA,00,00,00,00,00,00,
3071943,1081827E,true,Rx,0,8,28,9D,00,00,00,00,00,00,
3071454,108182FE,true,Tx,0,8,01,AA,00,00,00,00,00,00,
3072564,108182FE,true,Tx,0,8,02,AA,00,00,00,00,00,00,
3074235,1081827E,true,Rx,0,8,29,9D,00,00,00,00,00,00,
3073750,108182FE,true,Tx,0,8,03,AA,00,00,00,00,00,00,
3074827,108182FE,true,Tx,0,8,04,AA,00,00,00,00,00,00,
3076537,1081827E,true,Rx,0,8,2A,9D,00,00,00,00,00,00,
3076253,108182FE,true,Tx,0,8,05,AA,00,00,00,00,00,00,
3077612,108182FE,true,Tx,0,8,06,AA,00,00,00,00,00,00,
3078842,108182FE,true,Tx,0,8,07,AA,00,00,00,00,00,00,
3080053,1081827E,true,Rx,0,8,2C,9D,00,00,00,00,00,00,
3080054,1081827E,true,Rx,0,8,2D,9D,00,00,00,00,00,00,
3080031,108182FE,true,Tx,0,8,08,AA,00,00,00,00,00,00,
3081195,108182FE,true,Tx,0,8,09,AA,00,00,00,00,00,00,
3082397,108182FE,true,Tx,0,8,0A,AA,00,00,00,00,00,00,
3083536,1081827E,true,Rx,0,8,2F,9D,00,00,00,00,00,00,
3083581,108182FE,true,Tx,0,8,0B,AA,00,00,00,00,00,00,
3084709,108182FE,true,Tx,0,8,0C,AA,00,00,00,00,00,00,
3085828,1081827E,true,Rx,0,8,21,9E,00,00,00,00,00,00,
3085866,108182FE,true,Tx,0,8,0D,AA,00,00,00,00,00,00,
3086999,108182FE,true,Tx,0,8,0E,AA,00,00,00,00,00,00,
3088171,1081827E,true,Rx,0,8,22,9E,00,00,00,00,00,00,
3088148,108182FE,true,Tx,0,8,0F,AA,00,00,00,00,00,00,
3089296,108182FE,true,Tx,0,8,00,AB,00,00,00,00,00,00,
3090471,1081827E,true,Rx,0,8,24,9E,00,00,00,00,00,00,
3090514,108182FE,true,Tx,0,8,01,AB,00,00,00,00,00,00,
3091766,108182FE,true,Tx,0,8,02,AB,00,00,00,00,00,00,
3092831,1081827E,true,Rx,0,8,26,9E,00,00,00,00,00,00,
3093676,108182FE,true,Tx,0,8,03,AB,00,00,00,00,00,00,
3095112,1081827E,true,Rx,0,8,28,9E,00,00,00,00,00,00,
3094917,108182FE,true,Tx,0,8,04,AB,00,00,00,00,00,00,
3096182,108182FE,true,Tx,0,8,05,AB,00,00,00,00,00,00,
3097427,1081827E,true,Rx,0,8,29,9E,00,00,00,00,00,00,
3097742,108182FE,true,Tx,0,8,06,AB,00,00,00,00,00,00,
3098913,108182FE,true,Tx,0,8,07,AB,00,00,00,00,00,00,
3099756,1081827E,true,Rx,0,8,2B,9E,00,00,00,00,00,00,
3100103,108182FE,true,Tx,0,8,08,AB,00,00,00,00,00,00,
3101246,108182FE,true,Tx,0,8,09,AB,00,00,00,00,00,00,
3102111,1081827E,true,Rx,0,8,2D,9E,00,00,00,00,00,00,
3102440,108182FE,true,Tx,0,8,0A,AB,00,00,00,00,00,00,
3103732,108182FE,true,Tx,0,8,0B,AB,00,00,00,00,00,00,
3104471,1081827E,true,Rx,0,8,2F,9E,00,00,00,00,00,00,
3105059,108182FE,true,Tx,0,8,0C,AB,00,00,00,00,00,00,
3106210,108182FE,true,Tx,0,8,0D,AB,00,00,00,00,00,00,
3106771,1081827E,true,Rx,0,8,20,9F,00,00,00,00,00,00,
3107354,108182FE,true,Tx,0,8,0E,AB,00,00,00,00,00,00,
3109116,1081827E,true,Rx,0,8,22,9F,00,00,00,00,00,00,
3108768,108182FE,true,Tx,0,8,0F,AB,00,00,00,00,00,00,
3110179,108182FE,true,Tx,0,8,00,AC,00,00,00,00,00,00,
3111436,1081827E,true,Rx,0,8,25,9F,00,00,00,00,00,00,
3111765,108182FE,true,Tx,0,8,01,AC,00,00,00,00,00,00,
3113764,1081827E,true,Rx,0,8,26,9F,00,00,00,00,00,00,
3113219,108182FE,true,Tx,0,8,02,AC,00,00,00,00,00,00,
3114667,108182FE,true,Tx,0,8,03,AC,00,00,00,00,00,00,
3116112,1081827E,true,Rx,0,8,27,9F,00,00,00,00,00,00,
3115861,108182FE,true,Tx,0,8,04,AC,00,00,00,00,00,00,
3117061,108182FE,true,Tx,0,8,05,AC,00,00,00,00,00,00,
3118432,1081827E,true,Rx,0,8,29,9F,00,00,00,00,00,00,
3118308,108182FE,true,Tx,0,8,06,AC,00,00,00,00,00,00,
3119517,108182FE,true,Tx,0,8,07,AC,00,00,00,00,00,00,
3120768,1081827E,true,Rx,0,8,2B,9F,00,00,00,00,00,00,
3120750,108182FE,true,Tx,0,8,08,AC,00,00,00,00,00,00,
3121949,108182FE,true,Tx,0,8,09,AC,00,00,00,00,00,00,
3123111,1081827E,true,Rx,0,8,2E,9F,00,00,00,00,00,00,
3123401,108182FE,true,Tx,0,8,0A,AC,00,00,00,00,00,00,
3125432,1081827E,true,Rx,0,8,2F,9F,00,00,00,00,00,00,
3125114,108182FE,true,Tx,0,8,0B,AC,00,00,00,00,00,00,
3127000,108182FE,true,Tx,0,8,0C,AC,00,00,00,00,00,00,
3127709,1081827E,true,Rx,0,8,01,A0,93,F7,93,F7,93,F7,
3128581,108182FE,true,Tx,0,8,0D,AC,00,00,00,00,00,00,
3130052,1081827E,true,Rx,0,8,23,A0,00,00,00,00,00,00,
3130183,108182FE,true,Tx,0,8,0E,AC,00,00,00,00,00,00,
3131537,108182FE,true,Tx,0,8,0F,AC,00,00,00,00,00,00,
3132433,1081827E,true,Rx,0,8,24,A0,00,00,00,00,00,00,
3132897,108182FE,true,Tx,0,8,00,AD,00,00,00,00,00,00,
3134719,1081827E,true,Rx,0,8,26,A0,00,00,00,00,00,00,
3134240,108182FE,true,Tx,0,8,01,AD,00,00,00,00,00,00,
3135512,108182FE,true,Tx,0,8,02,AD,00,00,00,00,00,00,
3137054,1081827E,true,Rx,0,8,28,A0,00,00,00,00,00,00,
3136838,108182FE,true,Tx,0,8,03,AD,00,00,00,00,00,00,
3138104,108182FE,true,Tx,0,8,04,AD,00,00,00,00,00,00,
3139432,1081827E,true,Rx,0,8,2A,A0,00,00,00,00,00,00,
3139497,108182FE,true,Tx,0,8,05,AD,00,00,00,00,00,00,
3141025,108182FE,true,Tx,0,8,06,AD,00,00,00,00,00,00,
3141719,1081827E,true,Rx,0,8,2C,A0,00,00,00,00,00,00,
3143137,108182FE,true,Tx,0,8,07,AD,00,00,00,00,00,00,
3144003,1081827E,true,Rx,0,8,2E,A0,00,00,00,00,00,00,
3144494,108182FE,true,Tx,0,8,08,AD,00,00,00,00,00,00,
3145779,108182FE,true,Tx,0,8,09,AD,00,00,00,00,00,00,
3146421,1081827E,true,Rx,0,8,20,A1,00,00,00,00,00,00,
3147152,108182FE,true,Tx,0,8,0A,AD,00,00,00,00,00,00,
3148658,1081827E,true,Rx,0,8,22,A1,00,00,00,00,00,00,
3148410,108182FE,true,Tx,0,8,0B,AD,00,00,00,00,00,00,
3149584,108182FE,true,Tx,0,8,0C,AD,00,00,00,00,00,00,
3150992,1081827E,true,Rx,0,8,24,A1,00,00,00,00,00,00,
3151286,108182FE,true,Tx,0,8,0D,AD,00,00,00,00,00,00,
3152387,108182FE,true,Tx,0,8,0E,AD,00,00,00,00,00,00,
3153289,1081827E,true,Rx,0,8,26,A1,00,00,00,00,00,00,
3153533,108182FE,true,Tx,0,8,0F,AD,00,00,00,00,00,00,
3154607,108182FE,true,Tx,0,8,00,AE,00,00,00,00,00,00,
3155596,1081827E,true,Rx,0,8,28,A1,00,00,00,00,00,00,
3155772,108182FE,true,Tx,0,8,01,AE,00,00,00,00,00,00,
3156853,108182FE,true,Tx,0,8,02,AE,00,00,00,00,00,00,
3157882,1081827E,true,Rx,0,8,2A,A1,00,00,00,00,00,00,
3158012,108182FE,true,Tx,0,8,03,AE,00,00,00,00,00,00,
3159397,108182FE,true,Tx,0,8,04,AE,00,00,00,00,00,00,
3160228,1081827E,true,Rx,0,8,2C,A1,00,00,00,00,00,00,
3160860,108182FE,true,Tx,0,8,05,AE,00,00,00,00,00,00,
3162535,1081827E,true,Rx,0,8,2E,A1,00,00,00,00,00,00,
3162080,108182FE,true,Tx,0,8,06,AE,00,00,00,00,00,00,
3163204,108182FE,true,Tx,0,8,07,AE,00,00,00,00,00,00,
3164879,1081827E,true,Rx,0,8,2F,A1,00,00,00,00,00,00,
3164439,108182FE,true,Tx,0,8,08,AE,00,00,00,00,00,00,
3165548,108182FE,true,Tx,0,8,09,AE,00,00,00,00,00,00,
3167229,1081827E,true,Rx,0,8,21,A2,00,00,00,00,00,00,
3166721,108182FE,true,Tx,0,8,0A,AE,00,00,00,00,00,00,
3167872,108182FE,true,Tx,0,8,0B,AE,00,00,00,00,00,00,
3169537,1081827E,true,Rx,0,8,23,A2,00,00,00,00,00,00,
3169052,108182FE,true,Tx,0,8,0C,AE,00,00,00,00,00,00,
3170208,108182FE,true,Tx,0,8,0D,AE,00,00,00,00,00,00,
3171832,1081827E,true,Rx,0,8,25,A2,00,00,00,00,00,00,
3171381,108182FE,true,Tx,0,8,0E,AE,00,00,00,00,00,00,
3172534,108182FE,true,Tx,0,8,0F,AE,00,00,00,00,00,00,
3174185,1081827E,true,Rx,0,8,27,A2,00,00,00,00,00,00,
3173784,108182FE,true,Tx,0,8,00,AF,00,00,00,00,00,00,
3175450,108182FE,true,Tx,0,8,01,AF,00,00,00,00,00,00,
3176540,1081827E,true,Rx,0,8,29,A2,00,00,00,00,00,00,
3177882,108182FE,true,Tx,0,8,02,AF,00,00,00,00,00,00,
3178836,1081827E,true,Rx,0,8,2B,A2,00,00,00,00,00,00,
3180179,108182FE,true,Tx,0,8,03,AF,00,00,00,00,00,00,
3181122,1081827E,true,Rx,0,8,2C,A2,00,00,00,00,00,00,
3182388,108182FE,true,Tx,0,8,04,AF,00,00,00,00,00,00,
3183473,1081827E,true,Rx,0,8,2E,A2,00,00,00,00,00,00,
3184662,108182FE,true,Tx,0,8,05,AF,00,00,00,00,00,00,
3185778,1081827E,true,Rx,0,8,20,A3,00,00,00,00,00,00,
3186879,108182FE,true,Tx,0,8,06,AF,00,00,00,00,00,00,
3188060,1081827E,true,Rx,0,8,22,A3,00,00,00,00,00,00,
3189072,108182FE,true,Tx,0,8,07,AF,00,00,00,00,00,00,
3190433,1081827E,true,Rx,0,8,24,A3,00,00,00,00,00,00,
3191380,108182FE,true,Tx,0,8,08,AF,00,00,00,00,00,00,
3192715,1081827E,true,Rx,0,8,26,A3,00,00,00,00,00,00,
3193674,108182FE,true,Tx,0,8,09,AF,00,00,00,00,00,00,
3194998,1081827E,true,Rx,0,8,28,A3,00,00,00,00,00,00,
3194936,108182FE,true,Tx,0,8,0A,AF,00,00,00,00,00,00,
3196153,108182FE,true,Tx,0,8,0B,AF,00,00,00,00,00,00,
3197288,1081827E,true,Rx,0,8,2A,A3,00,00,00,00,00,00,
3197375,108182FE,true,Tx,0,8,0C,AF,00,00,00,00,00,00,
3198597,108182FE,true,Tx,0,8,0D,AF,00,00,00,00,00,00,
3199652,1081827E,true,Rx,0,8,2C,A3,00,00,00,00,00,00,
3199837,108182FE,true,Tx,0,8,0E,AF,00,00,00,00,00,00,
3201064,108182FE,true,Tx,0,8,0F,AF,00,00,00,00,00,00,
3201949,1081827E,true,Rx,0,8,2E,A3,00,00,00,00,00,00,
3202321,108182FE,true,Tx,0,8,00,B0,00,00,00,00,00,00,
3204292,1081827E,true,Rx,0,8,20,A4,00,00,00,00,00,00,
3203750,108182FE,true,Tx,0,8,01,B0,00,00,00,00,00,00,
3204996,108182FE,true,Tx,0,8,02,B0,00,00,00,00,00,00,
3206661,1081827E,true,Rx,0,8,22,A4,00,00,00,00,00,00,
3206323,108182FE,true,Tx,0,8,03,B0,00,00,00,00,00,00,
3207549,108182FE,true,Tx,0,8,04,B0,00,00,00,00,00,00,
3208942,1081827E,true,Rx,0,8,26,A4,00,00,00,00,00,00,
3209376,108182FE,true,Tx,0,8,05,B0,00,00,00,00,00,00,
3210604,108182FE,true,Tx,0,8,06,B0,00,00,00,00,00,00,
3211282,1081827E,true,Rx,0,8,27,A4,00,00,00,00,00,00,
3211878,108182FE,true,Tx,0,8,07,B0,00,00,00,00,00,00,
3213595,1081827E,true,Rx,0,8,28,A4,00,00,00,00,00,00,
3213102,108182FE,true,Tx,0,8,08,B0,00,00,00,00,00,00,
3214287,108182FE,true,Tx,0,8,09,B0,00,00,00,00,00,00,
3215522,108182FE,true,Tx,0,8,0A,B0,00,00,00,00,00,00,
3217114,1081827E,true,Rx,0,8,2A,A4,00,00,00,00,00,00,
3217115,1081827E,true,Rx,0,8,2C,A4,00,00,00,00,00,00,
3216784,108182FE,true,Tx,0,8,0B,B0,00,00,00,00,00,00,
3217987,108182FE,true,Tx,0,8,0C,B0,00,00,00,00,00,00,
3221740,1081827E,true,Rx,0,8,2E,A4,00,00,00,00,00,00,
3221741,1081827E,true,Rx,0,8,20,A5,00,00,00,00,00,00,
3225230,1081827E,true,Rx,0,8,22,A5,00,00,00,00,00,00,
3227541,1081827E,true,Rx,0,8,24,A5,00,00,00,00,00,00,
3229827,1081827E,true,Rx,0,8,26,A5,00,00,00,00,00,00,
3231410,108182FE,true,Tx,0,8,0D,B0,00,00,00,00,00,00,
3232179,1081827E,true,Rx,0,8,27,A5,00,00,00,00,00,00,
3234483,1081827E,true,Rx,0,8,29,A5,00,00,00,00,00,00,
3236768,1081827E,true,Rx,0,8,2C,A5,00,00,00,00,00,00,
3239117,1081827E,true,Rx,0,8,2D,A5,00,00,00,00,00,00,
3242538,1081827E,true,Rx,0,8,2F,A5,00,00,00,00,00,00,
3242538,1081827E,true,Rx,0,8,01,A6,7A,04,7A,04,7A,04,
3246000,1081827E,true,Rx,0,8,22,A6,00,00,00,00,00,00,
3247241,108182FE,true,Tx,0,8,0E,B0,00,00,00,00,00,00,
3248428,1081827E,true,Rx,0,8,24,A6,00,00,00,00,00,00,
3250655,1081827E,true,Rx,0,8,26,A6,00,00,00,00,00,00,
3253008,1081827E,true,Rx,0,8,28,A6,00,00,00,00,00,00,
3255292,1081827E,true,Rx,0,8,2A,A6,00,00,00,00,00,00,
3257601,1081827E,true,Rx,0,8,2B,A6,00,00,00,00,00,00,
3259958,1081827E,true,Rx,0,8,2C,A6,00,00,00,00,00,00,
3260618,108182FE,true,Tx,0,8,0F,B0,00,00,00,00,00,00,
3262242,1081827E,true,Rx,0,8,2D,A6,00,00,00,00,00,00,
3264571,1081827E,true,Rx,0,8,2E,A6,00,00,00,00,00,00,
3264103,108182FE,true,Tx,0,8,00,B1,00,00,00,00,00,00,
3266237,108182FE,true,Tx,0,8,01,B1,00,00,00,00,00,00,
3266884,1081827E,true,Rx,0,8,2F,A6,00,00,00,00,00,00,
3267442,108182FE,true,Tx,0,8,02,B1,00,00,00,00,00,00,
3268791,108182FE,true,Tx,0,8,03,B1,00,00,00,00,00,00,
3270331,1081827E,true,Rx,0,8,20,A7,00,00,00,00,00,00,
3270332,1081827E,true,Rx,0,8,01,A7,B4,D0,B4,D0,B4,D0,
3270043,108182FE,true,Tx,0,8,04,B1,00,00,00,00,00,00,
3271244,108182FE,true,Tx,0,8,05,B1,00,00,00,00,00,00,
3272440,108182FE,true,Tx,0,8,06,B1,00,00,00,00,00,00,
3273773,1081827E,true,Rx,0,8,22,A7,00,00,00,00,00,00,
3273737,108182FE,true,Tx,0,8,07,B1,00,00,00,00,00,00,
3274998,108182FE,true,Tx,0,8,08,B1,00,00,00,00,00,00,
3276115,1081827E,true,Rx,0,8,23,A7,00,00,00,00,00,00,
3276701,108182FE,true,Tx,0,8,09,B1,00,00,00,00,00,00,
3278442,1081827E,true,Rx,0,8,24,A7,00,00,00,00,00,00,
3279038,108182FE,true,Tx,0,8,0A,B1,00,00,00,00,00,00,
3280706,1081827E,true,Rx,0,8,25,A7,00,00,00,00,00,00,
3280801,108182FE,true,Tx,0,8,0B,B1,00,00,00,00,00,00,
3282126,108182FE,true,Tx,0,8,0C,B1,00,00,00,00,00,00,
3283344,108182FE,true,Tx,0,8,0D,B1,00,00,00,00,00,00,
3284167,1081827E,true,Rx,0,8,26,A7,00,00,00,00,00,00,
3284167,1081827E,true,Rx,0,8,27,A7,00,00,00,00,00,00,
3284577,108182FE,true,Tx,0,8,0E,B1,00,00,00,00,00,00,
3285756,108182FE,true,Tx,0,8,0F,B1,00,00,00,00,00,00,
3286936,108182FE,true,Tx,0,8,00,B2,00,00,00,00,00,00,
3287655,1081827E,true,Rx,0,8,28,A7,00,00,00,00,00,00,
3288108,108182FE,true,Tx,0,8,01,B2,00,00,00,00,00,00,
3289211,108182FE,true,Tx,0,8,02,B2,00,00,00,00,00,00,
3290003,1081827E,true,Rx,0,8,29,A7,00,00,00,00,00,00,
3290374,108182FE,true,Tx,0,8,03,B2,00,00,00,00,00,00,
3291469,108182FE,true,Tx,0,8,04,B2,00,00,00,00,00,00,
3292288,1081827E,true,Rx,0,8,2A,A7,00,00,00,00,00,00,
3292902,108182FE,true,Tx,0,8,05,B2,00,00,00,00,00,00,
3294614,1081827E,true,Rx,0,8,2B,A7,00,00,00,00,00,00,
3294334,108182FE,true,Tx,0,8,06,B2,00,00,00,00,00,00,
3295537,108182FE,true,Tx,0,8,07,B2,00,00,00,00,00,00,
3296944,1081827E,true,Rx,0,8,2C,A7,00,00,00,00,00,00,
3296689,108182FE,true,Tx,0,8,08,B2,00,00,00,00,00,00,
3297815,108182FE,true,Tx,0,8,09,B2,00,00,00,00,00,00,
3299225,1081827E,true,Rx,0,8,2D,A7,00,00,00,00,00,00,
3298927,108182FE,true,Tx,0,8,0A,B2,00,00,00,00,00,00,
3300426,108182FE,true,Tx,0,8,0B,B2,00,00,00,00,00,00,
3301597,1081827E,true,Rx,0,8,2E,A7,00,00,00,00,00,00,
3301562,108182FE,true,Tx,0,8,0C,B2,00,00,00,00,00,00,
3302659,108182FE,true,Tx,0,8,0D,B2,00,00,00,00,00,00,
3303893,1081827E,true,Rx,0,8,2F,A7,00,00,00,00,00,00,
3303771,108182FE,true,Tx,0,8,0E,B2,00,00,00,00,00,00,
3304875,108182FE,true,Tx,0,8,0F,B2,00,00,00,00,00,00,
3306231,1081827E,true,Rx,0,8,20,A8,00,00,00,00,00,00,
3306309,108182FE,true,Tx,0,8,00,B3,00,00,00,00,00,00,
3307578,108182FE,true,Tx,0,8,01,B3,00,00,00,00,00,00,
3308540,1081827E,true,Rx,0,8,21,A8,00,00,00,00,00,00,
3309144,108182FE,true,Tx,0,8,02,B3,00,00,00,00,00,00,
3310460,108182FE,true,Tx,0,8,03,B3,00,00,00,00,00,00,
3311734,108182FE,true,Tx,0,8,04,B3,00,00,00,00,00,00,
3313229,1081827E,true,Rx,0,8,22,A8,00,00,00,00,00,00,
3313230,1001117E,true,Rx,0,8,00,01,00,00,00,00,00,00,
3313230,1081827E,true,Rx,0,8,23,A8,00,00,00,00,00,00,
3313078,108182FE,true,Tx,0,8,05,B3,00,00,00,00,00,00,
3314321,108182FE,true,Tx,0,8,06,B3,00,00,00,00,00,00,
3315601,108182FE,true,Tx,0,8,07,B3,00,00,00,00,00,00,
3316712,1081827E,true,Rx,0,8,24,A8,00,00,00,00,00,00,
3316905,108182FE,true,Tx,0,8,08,B3,00,00,00,00,00,00,
3318080,108182FE,true,Tx,0,8,09,B3,00,00,00,00,00,00,
3319057,1081827E,true,Rx,0,8,25,A8,00,00,00,00,00,00,
3319283,108182FE,true,Tx,0,8,0A,B3,00,00,00,00,00,00,
3320443,108182FE,true,Tx,0,8,0B,B3,00,00,00,00,00,00,
3321600,108182FE,true,Tx,0,8,0C,B3,00,00,00,00,00,00,
3322539,1081827E,true,Rx,0,8,26,A8,00,00,00,00,00,00,
3322540,1081827E,true,Rx,0,8,27,A8,00,00,00,00,00,00,
3323128,108182FE,true,Tx,0,8,0D,B3,00,00,00,00,00,00,
3324513,108182FE,true,Tx,0,8,0E,B3,00,00,00,00,00,00,
3326001,1081827E,true,Rx,0,8,29,A8,00,00,00,00,00,00,
3326214,108182FE,true,Tx,0,8,0F,B3,00,00,00,00,00,00,
3327432,108182FE,true,Tx,0,8,00,B4,00,00,00,00,00,00,
3328430,1081827E,true,Rx,0,8,2B,A8,00,00,00,00,00,00,
3328639,108182FE,true,Tx,0,8,01,B4,00,00,00,00,00,00,
3329795,108182FE,true,Tx,0,8,02,B4,00,00,00,00,00,00,
3330649,1081827E,true,Rx,0,8,2C,A8,00,00,00,00,00,00,
3330957,108182FE,true,Tx,0,8,03,B4,00,00,00,00,00,00,
3332111,108182FE,true,Tx,0,8,04,B4,00,00,00,00,00,00,
3333021,1081827E,true,Rx,0,8,2E,A8,00,00,00,00,00,00,
3333263,108182FE,true,Tx,0,8,05,B4,00,00,00,00,00,00,
3334369,108182FE,true,Tx,0,8,06,B4,00,00,00,00,00,00,
3335293,1081827E,true,Rx,0,8,20,A9,00,00,00,00,00,00,
3335527,108182FE,true,Tx,0,8,07,B4,00,00,00,00,00,00,
3336673,108182FE,true,Tx,0,8,08,B4,00,00,00,00,00,00,
3337599,1081827E,true,Rx,0,8,22,A9,00,00,00,00,00,00,
3337814,108182FE,true,Tx,0,8,09,B4,00,00,00,00,00,00,
3338938,108182FE,true,Tx,0,8,0A,B4,00,00,00,00,00,00,
3339946,1081827E,true,Rx,0,8,24,A9,00,00,00,00,00,00,
3340112,108182FE,true,Tx,0,8,0B,B4,00,00,00,00,00,00,
3341429,108182FE,true,Tx,0,8,0C,B4,00,00,00,00,00,00,
3342226,1081827E,true,Rx,0,8,25,A9,00,00,00,00,00,00,
3343316,108182FE,true,Tx,0,8,0D,B4,00,00,00,00,00,00,
3344540,1081827E,true,Rx,0,8,27,A9,00,00,00,00,00,00,
3344785,108182FE,true,Tx,0,8,0E,B4,00,00,00,00,00,00,
3346020,108182FE,true,Tx,0,8,0F,B4,00,00,00,00,00,00,
3346891,1081827E,true,Rx,0,8,28,A9,00,00,00,00,00,00,
3347206,108182FE,true,Tx,0,8,00,B5,00,00,00,00,00,00,
3348361,108182FE,true,Tx,0,8,01,B5,00,00,00,00,00,00,
3349177,1081827E,true,Rx,0,8,2A,A9,00,00,00,00,00,00,
3349828,108182FE,true,Tx,0,8,02,B5,00,00,00,00,00,00,
3351540,1081827E,true,Rx,0,8,2C,A9,00,00,00,00,00,00,
3351266,108182FE,true,Tx,0,8,03,B5,00,00,00,00,00,00,
3352568,108182FE,true,Tx,0,8,04,B5,00,00,00,00,00,00,
3353829,1081827E,true,Rx,0,8,2E,A9,00,00,00,00,00,00,
3353875,108182FE,true,Tx,0,8,05,B5,00,00,00,00,00,00,
3355091,108182FE,true,Tx,0,8,06,B5,00,00,00,00,00,00,
3356171,1081827E,true,Rx,0,8,20,AA,00,00,00,00,00,00,
3356311,108182FE,true,Tx,0,8,07,B5,00,00,00,00,00,00,
3357526,108182FE,true,Tx,0,8,08,B5,00,00,00,00,00,00,
3358475,1081827E,true,Rx,0,8,21,AA,00,00,00,00,00,00,
3359119,108182FE,true,Tx,0,8,09,B5,00,00,00,00,00,00,
3360822,1081827E,true,Rx,0,8,23,AA,00,00,00,00,00,00,
3360522,108182FE,true,Tx,0,8,0A,B5,00,00,00,00,00,00,
3361767,108182FE,true,Tx,0,8,0B,B5,00,00,00,00,00,00,
3363106,1081827E,true,Rx,0,8,25,AA,00,00,00,00,00,00,
3363085,108182FE,true,Tx,0,8,0C,B5,00,00,00,00,00,00,
3364263,108182FE,true,Tx,0,8,0D,B5,00,00,00,00,00,00,
3365439,1081827E,true,Rx,0,8,28,AA,00,00,00,00,00,00,
3365587,108182FE,true,Tx,0,8,0E,B5,00,00,00,00,00,00,
3366876,108182FE,true,Tx,0,8,0F,B5,00,00,00,00,00,00,
3367771,1081827E,true,Rx,0,8,29,AA,00,00,00,00,00,00,
3368100,108182FE,true,Tx,0,8,00,B6,00,00,00,00,00,00,
3369348,108182FE,true,Tx,0,8,01,B6,00,00,00,00,00,00,
3370117,1081827E,true,Rx,0,8,2B,AA,00,00,00,00,00,00,
3370564,108182FE,true,Tx,0,8,02,B6,00,00,00,00,00,00,
3371737,108182FE,true,Tx,0,8,03,B6,00,00,00,00,00,00,
3372434,1081827E,true,Rx,0,8,2D,AA,00,00,00,00,00,00,
3372853,108182FE,true,Tx,0,8,04,B6,00,00,00,00,00,00,
3374007,108182FE,true,Tx,0,8,05,B6,00,00,00,00,00,00,
3374718,1081827E,true,Rx,0,8,2F,AA,00,00,00,00,00,00,
3375115,108182FE,true,Tx,0,8,06,B6,00,00,00,00,00,00,
3376631,108182FE,true,Tx,0,8,07,B6,00,00,00,00,00,00,
3378174,1081827E,true,Rx,0,8,21,AB,00,00,00,00,00,00,
3378174,1081827E,true,Rx,0,8,23,AB,00,00,00,00,00,00,
3378447,108182FE,true,Tx,0,8,08,B6,00,00,00,00,00,00,
3379612,108182FE,true,Tx,0,8,09,B6,00,00,00,00,00,00,
3380743,108182FE,true,Tx,0,8,0A,B6,00,00,00,00,00,00,
3381658,1081827E,true,Rx,0,8,24,AB,00,00,00,00,00,00,
3381879,108182FE,true,Tx,0,8,0B,B6,00,00,00,00,00,00,
3382980,108182FE,true,Tx,0,8,0C,B6,00,00,00,00,00,00,
3383948,1081827E,true,Rx,0,8,26,AB,00,00,00,00,00,00,
3384083,108182FE,true,Tx,0,8,0D,B6,00,00,00,00,00,00,
3385201,108182FE,true,Tx,0,8,0E,B6,00,00,00,00,00,00,
3386287,1081827E,true,Rx,0,8,28,AB,00,00,00,00,00,00,
3386325,108182FE,true,Tx,0,8,0F,B6,00,00,00,00,00,00,
3387444,108182FE,true,Tx,0,8,00,B7,00,00,00,00,00,00,
3388607,108182FE,true,Tx,0,8,01,B7,00,00,00,00,00,00,
3389781,1081827E,true,Rx,0,8,2A,AB,00,00,00,00,00,00,
3389782,1081827E,true,Rx,0,8,2C,AB,00,00,00,00,00,00,
3389728,108182FE,true,Tx,0,8,02,B7,00,00,00,00,00,00,
3390858,108182FE,true,Tx,0,8,03,B7,00,00,00,00,00,00,
3392221,108182FE,true,Tx,0,8,04,B7,00,00,00,00,00,00,
3393225,1081827E,true,Rx,0,8,2D,AB,00,00,00,00,00,00,
3393699,108182FE,true,Tx,0,8,05,B7,00,00,00,00,00,00,
3395553,1081827E,true,Rx,0,8,2F,AB,00,00,00,00,00,00,
3395040,108182FE,true,Tx,0,8,06,B7,00,00,00,00,00,00,
3396207,108182FE,true,Tx,0,8,07,B7,00,00,00,00,00,00,
3397884,1081827E,true,Rx,0,8,21,AC,00,00,00,00,00,00,
3397383,108182FE,true,Tx,0,8,08,B7,00,00,00,00,00,00,
3398579,108182FE,true,Tx,0,8,09,B7,00,00,00,00,00,00,
3400238,1081827E,true,Rx,0,8,22,AC,00,00,00,00,00,00,
3399765,108182FE,true,Tx,0,8,0A,B7,00,00,00,00,00,00,
3401022,108182FE,true,Tx,0,8,0B,B7,00,00,00,00,00,00,
3402541,1081827E,true,Rx,0,8,24,AC,00,00,00,00,00,00,
3402287,108182FE,true,Tx,0,8,0C,B7,00,00,00,00,00,00,
3403556,108182FE,true,Tx,0,8,0D,B7,00,00,00,00,00,00,
3404887,1081827E,true,Rx,0,8,26,AC,00,00,00,00,00,00,
3404755,108182FE,true,Tx,0,8,0E,B7,00,00,00,00,00,00,
3405958,108182FE,true,Tx,0,8,0F,B7,00,00,00,00,00,00,
3407120,108182FE,true,Tx,0,8,00,B8,00,00,00,00,00,00,
3408432,1081827E,true,Rx,0,8,28,AC,00,00,00,00,00,00,
3408433,1081827E,true,Rx,0,8,2A,AC,00,00,00,00,00,00,
3408335,108182FE,true,Tx,0,8,01,B8,00,00,00,00,00,00,
3409649,108182FE,true,Tx,0,8,02,B8,00,00,00,00,00,00,
3410800,108182FE,true,Tx,0,8,03,B8,00,00,00,00,00,00,
3411825,1081827E,true,Rx,0,8,2B,AC,00,00,00,00,00,00,
3411987,108182FE,true,Tx,0,8,04,B8,00,00,00,00,00,00,
3413099,108182FE,true,Tx,0,8,05,B8,00,00,00,00,00,00,
3414171,1081827E,true,Rx,0,8,2D,AC,00,00,00,00,00,00,
3414370,108182FE,true,Tx,0,8,06,B8,00,00,00,00,00,00,
3415516,108182FE,true,Tx,0,8,07,B8,00,00,00,00,00,00,
3416474,1081827E,true,Rx,0,8,2E,AC,00,00,00,00,00,00,
3416674,108182FE,true,Tx,0,8,08,B8,00,00,00,00,00,00,
3417795,108182FE,true,Tx,0,8,09,B8,00,00,00,00,00,00,
3418824,1081827E,true,Rx,0,8,20,AD,00,00,00,00,00,00,
3418960,108182FE,true,Tx,0,8,0A,B8,00,00,00,00,00,00,
3420092,108182FE,true,Tx,0,8,0B,B8,00,00,00,00,00,00,
3421122,1081827E,true,Rx,0,8,21,AD,00,00,00,00,00,00,
3421293,108182FE,true,Tx,0,8,0C,B8,00,00,00,00,00,00,
3422424,108182FE,true,Tx,0,8,0D,B8,00,00,00,00,00,00,
3423434,1081827E,true,Rx,0,8,23,AD,00,00,00,00,00,00,
3423630,108182FE,true,Tx,0,8,0E,B8,00,00,00,00,00,00,
3424833,108182FE,true,Tx,0,8,0F,B8,00,00,00,00,00,00,
3425772,1081827E,true,Rx,0,8,25,AD,00,00,00,00,00,00,
3426450,108182FE,true,Tx,0,8,00,B9,00,00,00,00,00,00,
3428117,1081827E,true,Rx,0,8,27,AD,00,00,00,00,00,00,
3427793,108182FE,true,Tx,0,8,01,B9,00,00,00,00,00,00,
3428985,108182FE,true,Tx,0,8,02,B9,00,00,00,00,00,00,
3430434,1081827E,true,Rx,0,8,28,AD,00,00,00,00,00,00,
3430183,108182FE,true,Tx,0,8,03,B9,00,00,00,00,00,00,
3431341,108182FE,true,Tx,0,8,04,B9,00,00,00,00,00,00,
3432714,1081827E,true,Rx,0,8,2A,AD,00,00,00,00,00,00,
3432507,108182FE,true,Tx,0,8,05,B9,00,00,00,00,00,00,
3433660,108182FE,true,Tx,0,8,06,B9,00,00,00,00,00,00,
3435056,1081827E,true,Rx,0,8,2B,AD,00,00,00,00,00,00,
3434810,108182FE,true,Tx,0,8,07,B9,00,00,00,00,00,00,
3435956,108182FE,true,Tx,0,8,08,B9,00,00,00,00,00,00,
3437432,1081827E,true,Rx,0,8,2D,AD,00,00,00,00,00,00,
3437120,108182FE,true,Tx,0,8,09,B9,00,00,00,00,00,00,
3438328,108182FE,true,Tx,0,8,0A,B9,00,00,00,00,00,00,
3439718,1081827E,true,Rx,0,8,2F,AD,00,00,00,00,00,00,
3439491,108182FE,true,Tx,0,8,0B,B9,00,00,00,00,00,00,
3440645,108182FE,true,Tx,0,8,0C,B9,00,00,00,00,00,00,
3442007,1081827E,true,Rx,0,8,21,AE,00,00,00,00,00,00,
3441866,108182FE,true,Tx,0,8,0D,B9,00,00,00,00,00,00,
3443443,108182FE,true,Tx,0,8,0E,B9,00,00,00,00,00,00,
3444433,1081827E,true,Rx,0,8,23,AE,00,00,00,00,00,00,
3445022,108182FE,true,Tx,0,8,0F,B9,00,00,00,00,00,00,
3446650,1081827E,true,Rx,0,8,25,AE,00,00,00,00,00,00,
3446202,108182FE,true,Tx,0,8,00,BA,00,00,00,00,00,00,
3447407,108182FE,true,Tx,0,8,01,BA,00,00,00,00,00,00,
3449002,1081827E,true,Rx,0,8,26,AE,00,00,00,00,00,00,
3448647,108182FE,true,Tx,0,8,02,BA,00,00,00,00,00,00,
3449821,108182FE,true,Tx,0,8,03,BA,00,00,00,00,00,00,
3451290,1081827E,true,Rx,0,8,28,AE,00,00,00,00,00,00,
3450957,108182FE,true,Tx,0,8,04,BA,00,00,00,00,00,00,
3452101,108182FE,true,Tx,0,8,05,BA,00,00,00,00,00,00,
3453599,1081827E,true,Rx,0,8,2A,AE,00,00,00,00,00,00,
3453268,108182FE,true,Tx,0,8,06,BA,00,00,00,00,00,00,
3454377,108182FE,true,Tx,0,8,07,BA,00,00,00,00,00,00,
3455945,1081827E,true,Rx,0,8,2C,AE,00,00,00,00,00,00,
3455538,108182FE,true,Tx,0,8,08,BA,00,00,00,00,00,00,
3456697,108182FE,true,Tx,0,8,09,BA,00,00,00,00,00,00,
3458243,1081827E,true,Rx,0,8,2E,AE,00,00,00,00,00,00,
3457807,108182FE,true,Tx,0,8,0A,BA,00,00,00,00,00,00,
3458959,108182FE,true,Tx,0,8,0B,BA,00,00,00,00,00,00,
3460602,1081827E,true,Rx,0,8,20,AF,00,00,00,00,00,00,
3460468,108182FE,true,Tx,0,8,0C,BA,00,00,00,00,00,00,
3461796,108182FE,true,Tx,0,8,0D,BA,00,00,00,00,00,00,
3462944,1081827E,true,Rx,0,8,22,AF,00,00,00,00,00,00,
3463026,108182FE,true,Tx,0,8,0E,BA,00,00,00,00,00,00,
3464149,108182FE,true,Tx,0,8,0F,BA,00,00,00,00,00,00,
3465229,1081827E,true,Rx,0,8,23,AF,00,00,00,00,00,00,
3465311,108182FE,true,Tx,0,8,00,BB,00,00,00,00,00,00,
3466617,108182FE,true,Tx,0,8,01,BB,00,00,00,00,00,00,
3467543,1081827E,true,Rx,0,8,24,AF,00,00,00,00,00,00,
3468806,108182FE,true,Tx,0,8,02,BB,00,00,00,00,00,00,
3469886,1081827E,true,Rx,0,8,25,AF,00,00,00,00,00,00,
3472192,1081827E,true,Rx,0,8,26,AF,00,00,00,00,00,00,
3474475,1081827E,true,Rx,0,8,27,AF,00,00,00,00,00,00,
3476831,1081827E,true,Rx,0,8,28,AF,00,00,00,00,00,00,
3479116,1081827E,true,Rx,0,8,29,AF,00,00,00,00,00,00,
3481427,1081827E,true,Rx,0,8,2A,AF,00,00,00,00,00,00,
3483121,108182FE,true,Tx,0,8,03,BB,00,00,00,00,00,00,
3483727,1081827E,true,Rx,0,8,2C,AF,00,00,00,00,00,00,
3486064,1081827E,true,Rx,0,8,2E,AF,00,00,00,00,00,00,
3488450,1081827E,true,Rx,0,8,20,B0,00,00,00,00,00,00,
3490773,1081827E,true,Rx,0,8,21,B0,00,00,00,00,00,00,
3493068,1081827E,true,Rx,0,8,23,B0,00,00,00,00,00,00,
3495440,1081827E,true,Rx,0,8,25,B0,00,00,00,00,00,00,
3497718,1081827E,true,Rx,0,8,27,B0,00,00,00,00,00,00,
3499060,108182FE,true,Tx,0,8,04,BB,00,00,00,00,00,00,
3500058,1081827E,true,Rx,0,8,28,B0,00,00,00,00,00,00,
3500503,108182FE,true,Tx,0,8,05,BB,00,00,00,00,00,00,
3501860,108182FE,true,Tx,0,8,06,BB,00,00,00,00,00,00,
3502434,1081827E,true,Rx,0,8,2B,B0,00,00,00,00,00,00,
3503151,108182FE,true,Tx,0,8,07,BB,00,00,00,00,00,00,
3504719,1081827E,true,Rx,0,8,2C,B0,00,00,00,00,00,00,
3504443,108182FE,true,Tx,0,8,08,BB,00,00,00,00,00,00,
3505755,108182FE,true,Tx,0,8,09,BB,00,00,00,00,00,00,
3507060,1081827E,true,Rx,0,8,2D,B0,00,00,00,00,00,00,
3507017,108182FE,true,Tx,0,8,0A,BB,00,00,00,00,00,00,
3508248,108182FE,true,Tx,0,8,0B,BB,00,00,00,00,00,00,
3509433,1081827E,true,Rx,0,8,2E,B0,00,00,00,00,00,00,
3510713,108182FE,true,Tx,0,8,0C,BB,00,00,00,00,00,00,
3511709,1081827E,true,Rx,0,8,2F,B0,00,00,00,00,00,00,
3514025,1081827E,true,Rx,0,8,20,B1,00,00,00,00,00,00,
3514159,108182FE,true,Tx,0,8,0D,BB,00,00,00,00,00,00,
3516439,1081827E,true,Rx,0,8,21,B1,00,00,00,00,00,00,
3517215,108182FE,true,Tx,0,8,0E,BB,00,00,00,00,00,00,
3518648,1081827E,true,Rx,0,8,22,B1,00,00,00,00,00,00,
3518898,108182FE,true,Tx,0,8,0F,BB,00,00,00,00,00,00,
3520105,108182FE,true,Tx,0,8,00,BC,00,00,00,00,00,00,
3520946,1081827E,true,Rx,0,8,23,B1,00,00,00,00,00,00,
3522373,108182FE,true,Tx,0,8,01,BC,00,00,00,00,00,00,
3523297,1081827E,true,Rx,0,8,24,B1,00,00,00,00,00,00,
3525607,1081827E,true,Rx,0,8,25,B1,00,00,00,00,00,00,
3525131,108182FE,true,Tx,0,8,02,BC,00,00,00,00,00,00,
3526673,108182FE,true,Tx,0,8,03,BC,00,00,00,00,00,00,
3527943,1081827E,true,Rx,0,8,26,B1,00,00,00,00,00,00,
3527823,108182FE,true,Tx,0,8,04,BC,00,00,00,00,00,00,
3528961,108182FE,true,Tx,0,8,05,BC,00,00,00,00,00,00,
3530235,1081827E,true,Rx,0,8,27,B1,00,00,00,00,00,00,
3530108,108182FE,true,Tx,0,8,06,BC,00,00,00,00,00,00,
3531461,108182FE,true,Tx,0,8,07,BC,00,00,00,00,00,00,
3532573,1081827E,true,Rx,0,8,28,B1,00,00,00,00,00,00,
3533105,108182FE,true,Tx,0,8,08,BC,00,00,00,00,00,00,
3534221,108182FE,true,Tx,0,8,09,BC,00,00,00,00,00,00,
3534886,1081827E,true,Rx,0,8,29,B1,00,00,00,00,00,00,
3535423,108182FE,true,Tx,0,8,0A,BC,00,00,00,00,00,00,
3536605,108182FE,true,Tx,0,8,0B,BC,00,00,00,00,00,00,
3537175,1081827E,true,Rx,0,8,2A,B1,00,00,00,00,00,00,
3537719,108182FE,true,Tx,0,8,0C,BC,00,00,00,00,00,00,
3539476,1081827E,true,Rx,0,8,2B,B1,00,00,00,00,00,00,
3538971,108182FE,true,Tx,0,8,0D,BC,00,00,00,00,00,00,
3540388,108182FE,true,Tx,0,8,0E,BC,00,00,00,00,00,00,
3541838,1081827E,true,Rx,0,8,2C,B1,00,00,00,00,00,00,
3542096,108182FE,true,Tx,0,8,0F,BC,00,00,00,00,00,00,
3543297,108182FE,true,Tx,0,8,00,BD,00,00,00,00,00,00,
3544119,1081827E,true,Rx,0,8,2D,B1,00,00,00,00,00,00,
3544457,108182FE,true,Tx,0,8,01,BD,00,00,00,00,00,00,
3545624,108182FE,true,Tx,0,8,02,BD,00,00,00,00,00,00,
3546476,1081827E,true,Rx,0,8,2E,B1,00,00,00,00,00,00,
3546824,108182FE,true,Tx,0,8,03,BD,00,00,00,00,00,00,
3547932,108182FE,true,Tx,0,8,04,BD,00,00,00,00,00,00,
3548776,1081827E,true,Rx,0,8,2F,B1,00,00,00,00,00,00,
3549080,108182FE,true,Tx,0,8,05,BD,00,00,00,00,00,00,
3550235,108182FE,true,Tx,0,8,06,BD,00,00,00,00,00,00,
3551127,1081827E,true,Rx,0,8,20,B2,00,00,00,00,00,00,
3551397,108182FE,true,Tx,0,8,07,BD,00,00,00,00,00,00,
3552553,108182FE,true,Tx,0,8,08,BD,00,00,00,00,00,00,
3553436,1081827E,true,Rx,0,8,21,B2,00,00,00,00,00,00,
3553742,108182FE,true,Tx,0,8,09,BD,00,00,00,00,00,00,
3554856,108182FE,true,Tx,0,8,0A,BD,00,00,00,00,00,00,
3555775,1081827E,true,Rx,0,8,22,B2,00,00,00,00,00,00,
3556183,108182FE,true,Tx,0,8,0B,BD,00,00,00,00,00,00,
3558048,1081827E,true,Rx,0,8,23,B2,00,00,00,00,00,00,
3557665,108182FE,true,Tx,0,8,0C,BD,00,00,00,00,00,00,
3558799,108182FE,true,Tx,0,8,0D,BD,00,00,00,00,00,00,
3560435,1081827E,true,Rx,0,8,24,B2,00,00,00,00,00,00,
3559983,108182FE,true,Tx,0,8,0E,BD,00,00,00,00,00,00,
3561140,108182FE,true,Tx,0,8,0F,BD,00,00,00,00,00,00,
3562720,1081827E,true,Rx,0,8,25,B2,00,00,00,00,00,00,
3562300,108182FE,true,Tx,0,8,00,BE,00,00,00,00,00,00,
3563403,108182FE,true,Tx,0,8,01,BE,00,00,00,00,00,00,
3565060,1081827E,true,Rx,0,8,26,B2,00,00,00,00,00,00,
3564550,108182FE,true,Tx,0,8,02,BE,00,00,00,00,00,00,
3565640,108182FE,true,Tx,0,8,03,BE,00,00,00,00,00,00,
3566777,108182FE,true,Tx,0,8,04,BE,00,00,00,00,00,00,
3567433,1081827E,true,Rx,0,8,27,B2,00,00,00,00,00,00,
3567934,108182FE,true,Tx,0,8,05,BE,00,00,00,00,00,00,
3569721,1081827E,true,Rx,0,8,28,B2,00,00,00,00,00,00,
3569371,108182FE,true,Tx,0,8,06,BE,00,00,00,00,00,00,
3570529,108182FE,true,Tx,0,8,07,BE,00,00,00,00,00,00,
3572008,1081827E,true,Rx,0,8,29,B2,00,00,00,00,00,00,
3571778,108182FE,true,Tx,0,8,08,BE,00,00,00,00,00,00,
3573366,108182FE,true,Tx,0,8,09,BE,00,00,00,00,00,00,
3574339,1081827E,true,Rx,0,8,2A,B2,00,00,00,00,00,00,
3574810,108182FE,true,Tx,0,8,0A,BE,00,00,00,00,00,00,
3575913,108182FE,true,Tx,0,8,0B,BE,00,00,00,00,00,00,
3576659,1081827E,true,Rx,0,8,2B,B2,00,00,00,00,00,00,
3577149,108182FE,true,Tx,0,8,0C,BE,00,00,00,00,00,00,
3578247,108182FE,true,Tx,0,8,0D,BE,00,00,00,00,00,00,
3578948,1081827E,true,Rx,0,8,2C,B2,00,00,00,00,00,00,
3579414,108182FE,true,Tx,0,8,0E,BE,00,00,00,00,00,00,
3580505,108182FE,true,Tx,0,8,0F,BE,00,00,00,00,00,00,
3581296,1081827E,true,Rx,0,8,2D,B2,00,00,00,00,00,00,
3581674,108182FE,true,Tx,0,8,00,BF,00,00,00,00,00,00,
3582782,108182FE,true,Tx,0,8,01,BF,00,00,00,00,00,00,
3583596,1081827E,true,Rx,0,8,2E,B2,00,00,00,00,00,00,
3583949,108182FE,true,Tx,0,8,02,BF,00,00,00,00,00,00,
3585024,108182FE,true,Tx,0,8,03,BF,00,00,00,00,00,00,
3585950,1081827E,true,Rx,0,8,2F,B2,00,00,00,00,00,00,
3586166,108182FE,true,Tx,0,8,04,BF,00,00,00,00,00,00,
3587243,108182FE,true,Tx,0,8,05,BF,00,00,00,00,00,00,
3588239,1081827E,true,Rx,0,8,20,B3,00,00,00,00,00,00,
3588400,108182FE,true,Tx,0,8,06,BF,00,00,00,00,00,00,
3589460,108182FE,true,Tx,0,8,07,BF,00,00,00,00,00,00,
3590594,1081827E,true,Rx,0,8,21,B3,00,00,00,00,00,00,
3590808,108182FE,true,Tx,0,8,08,BF,00,00,00,00,00,00,
3592285,108182FE,true,Tx,0,8,09,BF,00,00,00,00,00,00,
3592887,1081827E,true,Rx,0,8,22,B3,00,00,00,00,00,00,
3593530,108182FE,true,Tx,0,8,0A,BF,00,00,00,00,00,00,
3594724,108182FE,true,Tx,0,8,0B,BF,00,00,00,00,00,00,
3595860,108182FE,true,Tx,0,8,0C,BF,00,00,00,00,00,00,
3596434,1081827E,true,Rx,0,8,23,B3,00,00,00,00,00,00,
3596435,1081827E,true,Rx,0,8,25,B3,00,00,00,00,00,00,
3597149,108182FE,true,Tx,0,8,0D,BF,00,00,00,00,00,00,
3598261,108182FE,true,Tx,0,8,0E,BF,00,00,00,00,00,00,
3599835,1081827E,true,Rx,0,8,26,B3,00,00,00,00,00,00,
3599380,108182FE,true,Tx,0,8,0F,BF,00,00,00,00,00,00,
3600504,108182FE,true,Tx,0,8,00,C0,00,00,00,00,00,00,
3602177,1081827E,true,Rx,0,8,28,B3,00,00,00,00,00,00,
3601674,108182FE,true,Tx,0,8,01,C0,00,00,00,00,00,00,
3602801,108182FE,true,Tx,0,8,02,C0,00,00,00,00,00,00,
3603928,108182FE,true,Tx,0,8,03,C0,00,00,00,00,00,00,
3605658,1081827E,true,Rx,0,8,2A,B3,00,00,00,00,00,00,
3605659,1081827E,true,Rx,0,8,2D,B3,00,00,00,00,00,00,
3605171,108182FE,true,Tx,0,8,04,C0,00,00,00,00,00,00,
3606593,108182FE,true,Tx,0,8,05,C0,00,00,00,00,00,00,
3608028,108182FE,true,Tx,0,8,06,C0,00,00,00,00,00,00,
3609111,1081827E,true,Rx,0,8,2E,B3,00,00,00,00,00,00,
3609371,108182FE,true,Tx,0,8,07,C0,00,00,00,00,00,00,
3610555,108182FE,true,Tx,0,8,08,C0,00,00,00,00,00,00,
3611436,1081827E,true,Rx,0,8,2F,B3,00,00,00,00,00,00,
3611724,108182FE,true,Tx,0,8,09,C0,00,00,00,00,00,00,
3612905,108182FE,true,Tx,0,8,0A,C0,00,00,00,00,00,00,
3613778,1081827E,true,Rx,0,8,21,B4,00,00,00,00,00,00,
3614119,108182FE,true,Tx,0,8,0B,C0,00,00,00,00,00,00,
3615384,108182FE,true,Tx,0,8,0C,C0,00,00,00,00,00,00,
3616672,108182FE,true,Tx,0,8,0D,C0,00,00,00,00,00,00,
3617245,1081827E,true,Rx,0,8,23,B4,00,00,00,00,00,00,
3617246,1081827E,true,Rx,0,8,25,B4,00,00,00,00,00,00,
3617993,108182FE,true,Tx,0,8,0E,C0,00,00,00,00,00,00,
3619279,108182FE,true,Tx,0,8,0F,C0,00,00,00,00,00,00,
3620782,1081827E,true,Rx,0,8,27,B4,00,00,00,00,00,00,
3620579,108182FE,true,Tx,0,8,00,C1,00,00,00,00,00,00,
3621875,108182FE,true,Tx,0,8,01,C1,00,00,00,00,00,00,
3623128,1081827E,true,Rx,0,8,29,B4,00,00,00,00,00,00,
3623205,108182FE,true,Tx,0,8,02,C1,00,00,00,00,00,00,
3625441,1081827E,true,Rx,0,8,2B,B4,00,00,00,00,00,00,
3625111,108182FE,true,Tx,0,8,03,C1,00,00,00,00,00,00,
3626534,108182FE,true,Tx,0,8,04,C1,00,00,00,00,00,00,
3627729,1081827E,true,Rx,0,8,2D,B4,00,00,00,00,00,00,
3628027,108182FE,true,Tx,0,8,05,C1,00,00,00,00,00,00,
3629477,108182FE,true,Tx,0,8,06,C1,00,00,00,00,00,00,
3630062,1081827E,true,Rx,0,8,2E,B4,00,00,00,00,00,00,
3630937,108182FE,true,Tx,0,8,07,C1,00,00,00,00,00,00,
3632436,1081827E,true,Rx,0,8,20,B5,00,00,00,00,00,00,
3632452,108182FE,true,Tx,0,8,08,C1,00,00,00,00,00,00,
3633787,108182FE,true,Tx,0,8,09,C1,00,00,00,00,00,00,
3634719,1081827E,true,Rx,0,8,22,B5,00,00,00,00,00,00,
3635279,108182FE,true,Tx,0,8,0A,C1,00,00,00,00,00,00,
3637000,1081827E,true,Rx,0,8,23,B5,00,00,00,00,00,00,
3636726,108182FE,true,Tx,0,8,0B,C1,00,00,00,00,00,00,
3637957,108182FE,true,Tx,0,8,0C,C1,00,00,00,00,00,00,
3639436,1081827E,true,Rx,0,8,25,B5,00,00,00,00,00,00,
3639404,108182FE,true,Tx,0,8,0D,C1,00,00,00,00,00,00,
3640922,108182FE,true,Tx,0,8,0E,C1,00,00,00,00,00,00,
3641667,1081827E,true,Rx,0,8,27,B5,00,00,00,00,00,00,
3642317,108182FE,true,Tx,0,8,0F,C1,00,00,00,00,00,00,
3643948,1081827E,true,Rx,0,8,29,B5,00,00,00,00,00,00,
3643640,108182FE,true,Tx,0,8,00,C2,00,00,00,00,00,00,
3644884,108182FE,true,Tx,0,8,01,C2,00,00,00,00,00,00,
3646298,1081827E,true,Rx,0,8,2A,B5,00,00,00,00,00,00,
3646106,108182FE,true,Tx,0,8,02,C2,00,00,00,00,00,00,
3647264,108182FE,true,Tx,0,8,03,C2,00,00,00,00,00,00,
3648600,1081827E,true,Rx,0,8,2C,B5,00,00,00,00,00,00,
3648510,108182FE,true,Tx,0,8,04,C2,00,00,00,00,00,00,
3649738,108182FE,true,Tx,0,8,05,C2,00,00,00,00,00,00,
3650957,108182FE,true,Tx,0,8,06,C2,00,00,00,00,00,00,
3652060,1081827E,true,Rx,0,8,2E,B5,00,00,00,00,00,00,
3652061,1081827E,true,Rx,0,8,20,B6,00,00,00,00,00,00,
3652081,108182FE,true,Tx,0,8,07,C2,00,00,00,00,00,00,
3653214,108182FE,true,Tx,0,8,08,C2,00,00,00,00,00,00,
3654290,108182FE,true,Tx,0,8,09,C2,00,00,00,00,00,00,
3655556,1081827E,true,Rx,0,8,22,B6,00,00,00,00,00,00,
3655475,108182FE,true,Tx,0,8,0A,C2,00,00,00,00,00,00,
3656828,108182FE,true,Tx,0,8,0B,C2,00,00,00,00,00,00,
3657875,1081827E,true,Rx,0,8,24,B6,00,00,00,00,00,00,
3658291,108182FE,true,Tx,0,8,0C,C2,00,00,00,00,00,00,
3659467,108182FE,true,Tx,0,8,0D,C2,00,00,00,00,00,00,
3660184,1081827E,true,Rx,0,8,26,B6,00,00,00,00,00,00,
3660641,108182FE,true,Tx,0,8,0E,C2,00,00,00,00,00,00,
3661760,108182FE,true,Tx,0,8,0F,C2,00,00,00,00,00,00,
3662544,1081827E,true,Rx,0,8,28,B6,00,00,00,00,00,00,
3662891,108182FE,true,Tx,0,8,00,C3,00,00,00,00,00,00,
3664043,108182FE,true,Tx,0,8,01,C3,00,00,00,00,00,00,
3664835,1081827E,true,Rx,0,8,29,B6,00,00,00,00,00,00,
3665162,108182FE,true,Tx,0,8,02,C3,00,00,00,00,00,00,
3666273,108182FE,true,Tx,0,8,03,C3,00,00,00,00,00,00,
3667176,1081827E,true,Rx,0,8,2B,B6,00,00,00,00,00,00,
3667378,108182FE,true,Tx,0,8,04,C3,00,00,00,00,00,00,
3668495,108182FE,true,Tx,0,8,05,C3,00,00,00,00,00,00,
3669477,1081827E,true,Rx,0,8,2D,B6,00,00,00,00,00,00,
3669590,108182FE,true,Tx,0,8,06,C3,00,00,00,00,00,00,
3670683,108182FE,true,Tx,0,8,07,C3,00,00,00,00,00,00,
3671778,1081827E,true,Rx,0,8,2F,B6,00,00,00,00,00,00,
3671777,108182FE,true,Tx,0,8,08,C3,00,00,00,00,00,00,
3672896,108182FE,true,Tx,0,8,09,C3,00,00,00,00,00,00,
3674119,1081827E,true,Rx,0,8,22,B7,00,00,00,00,00,00,
3674234,108182FE,true,Tx,0,8,0A,C3,00,00,00,00,00,00,
3675845,108182FE,true,Tx,0,8,0B,C3,00,00,00,00,00,00,
3676443,1081827E,true,Rx,0,8,23,B7,00,00,00,00,00,00,
3677302,108182FE,true,Tx,0,8,0C,C3,00,00,00,00,00,00,
3678719,1081827E,true,Rx,0,8,25,B7,00,00,00,00,00,00,
3678814,108182FE,true,Tx,0,8,0D,C3,00,00,00,00,00,00,
3680171,108182FE,true,Tx,0,8,0E,C3,00,00,00,00,00,00,
3681063,1081827E,true,Rx,0,8,26,B7,00,00,00,00,00,00,
3681632,108182FE,true,Tx,0,8,0F,C3,00,00,00,00,00,00,
3683434,1081827E,true,Rx,0,8,28,B7,00,00,00,00,00,00,
3682990,108182FE,true,Tx,0,8,00,C4,00,00,00,00,00,00,
3684308,108182FE,true,Tx,0,8,01,C4,00,00,00,00,00,00,
3685717,1081827E,true,Rx,0,8,2A,B7,00,00,00,00,00,00,
3685645,108182FE,true,Tx,0,8,02,C4,00,00,00,00,00,00,
3686866,108182FE,true,Tx,0,8,03,C4,00,00,00,00,00,00,
3688113,108182FE,true,Tx,0,8,04,C4,00,00,00,00,00,00,
3689189,1081827E,true,Rx,0,8,2C,B7,00,00,00,00,00,00,
3689190,1081827E,true,Rx,0,8,2E,B7,00,00,00,00,00,00,
3689285,108182FE,true,Tx,0,8,05,C4,00,00,00,00,00,00,
3690863,108182FE,true,Tx,0,8,06,C4,00,00,00,00,00,00,
3692059,108182FE,true,Tx,0,8,07,C4,00,00,00,00,00,00,
3692664,1081827E,true,Rx,0,8,21,B8,00,00,00,00,00,00,
3693218,108182FE,true,Tx,0,8,08,C4,00,00,00,00,00,00,
3694386,108182FE,true,Tx,0,8,09,C4,00,00,00,00,00,00,
3695010,1081827E,true,Rx,0,8,22,B8,00,00,00,00,00,00,
3695688,108182FE,true,Tx,0,8,0A,C4,00,00,00,00,00,00,
3697289,1081827E,true,Rx,0,8,24,B8,00,00,00,00,00,00,
3696857,108182FE,true,Tx,0,8,0B,C4,00,00,00,00,00,00,
3697991,108182FE,true,Tx,0,8,0C,C4,00,00,00,00,00,00,
3699100,108182FE,true,Tx,0,8,0D,C4,00,00,00,00,00,00,
3699670,1081827E,true,Rx,0,8,26,B8,00,00,00,00,00,00,
3700234,108182FE,true,Tx,0,8,0E,C4,00,00,00,00,00,00,
3701374,108182FE,true,Tx,0,8,0F,C4,00,00,00,00,00,00,
3702542,108182FE,true,Tx,0,8,00,C5,00,00,00,00,00,00,
3703671,108182FE,true,Tx,0,8,01,C5,00,00,00,00,00,00,
3704300,1081827E,true,Rx,0,8,28,B8,00,00,00,00,00,00,
3704301,1001117E,true,Rx,0,8,00,01,00,00,00,00,00,00,
3704302,1081827E,true,Rx,0,8,2A,B8,00,00,00,00,00,00,
3704943,108182FE,true,Tx,0,8,02,C5,00,00,00,00,00,00,
3706109,108182FE,true,Tx,0,8,03,C5,00,00,00,00,00,00,
3707793,1081827E,true,Rx,0,8,2C,B8,00,00,00,00,00,00,
3707489,108182FE,true,Tx,0,8,04,C5,00,00,00,00,00,00,
3709015,108182FE,true,Tx,0,8,05,C5,00,00,00,00,00,00,
3710123,1081827E,true,Rx,0,8,2E,B8,00,00,00,00,00,00,
3710315,108182FE,true,Tx,0,8,06,C5,00,00,00,00,00,00,
3711486,108182FE,true,Tx,0,8,07,C5,00,00,00,00,00,00,
3712471,1081827E,true,Rx,0,8,20,B9,00,00,00,00,00,00,
3712643,108182FE,true,Tx,0,8,08,C5,00,00,00,00,00,00,
3713763,108182FE,true,Tx,0,8,09,C5,00,00,00,00,00,00,
3714770,1081827E,true,Rx,0,8,21,B9,00,00,00,00,00,00,
3714887,108182FE,true,Tx,0,8,0A,C5,00,00,00,00,00,00,
3715998,108182FE,true,Tx,0,8,0B,C5,00,00,00,00,00,00,
3717129,1081827E,true,Rx,0,8,23,B9,00,00,00,00,00,00,
3717112,108182FE,true,Tx,0,8,0C,C5,00,00,00,00,00,00,
3718341,108182FE,true,Tx,0,8,0D,C5,00,00,00,00,00,00,
3719446,1081827E,true,Rx,0,8,25,B9,00,00,00,00,00,00,
3721719,1081827E,true,Rx,0,8,27,B9,00,00,00,00,00,00,
3725177,1081827E,true,Rx,0,8,29,B9,00,00,00,00,00,00,
3725178,1081827E,true,Rx,0,8,2B,B9,00,00,00,00,00,00,
3728658,1081827E,true,Rx,0,8,2D,B9,00,00,00,00,00,00,
3731001,1081827E,true,Rx,0,8,2F,B9,00,00,00,00,00,00,
3731408,108182FE,true,Tx,0,8,0E,C5,00,00,00,00,00,00,
3733436,1081827E,true,Rx,0,8,20,BA,00,00,00,00,00,00,
3735663,1081827E,true,Rx,0,8,22,BA,00,00,00,00,00,00,
3737952,1081827E,true,Rx,0,8,24,BA,00,00,00,00,00,00,
3740295,1081827E,true,Rx,0,8,26,BA,00,00,00,00,00,00,
3742607,1081827E,true,Rx,0,8,28,BA,00,00,00,00,00,00,
3744934,1081827E,true,Rx,0,8,2A,BA,00,00,00,00,00,00,
3745852,108182FE,true,Tx,0,8,0F,C5,00,00,00,00,00,00,
3747231,1081827E,true,Rx,0,8,2C,BA,00,00,00,00,00,00,
3747211,108182FE,true,Tx,0,8,00,C6,00,00,00,00,00,00,
3748435,108182FE,true,Tx,0,8,01,C6,00,00,00,00,00,00,
3749612,1081827E,true,Rx,0,8,2E,BA,00,00,00,00,00,00,
3749655,108182FE,true,Tx,0,8,02,C6,00,00,00,00,00,00,
3750801,108182FE,true,Tx,0,8,03,C6,00,00,00,00,00,00,
3751890,1081827E,true,Rx,0,8,20,BB,00,00,00,00,00,00,
3751993,108182FE,true,Tx,0,8,04,C6,00,00,00,00,00,00,
3753141,108182FE,true,Tx,0,8,05,C6,00,00,00,00,00,00,
3754187,1081827E,true,Rx,0,8,22,BB,00,00,00,00,00,00,
3754422,108182FE,true,Tx,0,8,06,C6,00,00,00,00,00,00,
3755639,108182FE,true,Tx,0,8,07,C6,00,00,00,00,00,00,
3756478,1081827E,true,Rx,0,8,23,BB,00,00,00,00,00,00,
3756983,108182FE,true,Tx,0,8,08,C6,00,00,00,00,00,00,
3758834,1081827E,true,Rx,0,8,24,BB,00,00,00,00,00,00,
3758853,108182FE,true,Tx,0,8,09,C6,00,00,00,00,00,00,
3761140,1081827E,true,Rx,0,8,25,BB,00,00,00,00,00,00,
3761180,108182FE,true,Tx,0,8,0A,C6,00,00,00,00,00,00,
3762890,108182FE,true,Tx,0,8,0B,C6,00,00,00,00,00,00,
3763478,1081827E,true,Rx,0,8,26,BB,00,00,00,00,00,00,
3764174,108182FE,true,Tx,0,8,0C,C6,00,00,00,00,00,00,
3765773,1081827E,true,Rx,0,8,27,BB,00,00,00,00,00,00,
3765409,108182FE,true,Tx,0,8,0D,C6,00,00,00,00,00,00,
3766670,108182FE,true,Tx,0,8,0E,C6,00,00,00,00,00,00,
3768114,1081827E,true,Rx,0,8,28,BB,00,00,00,00,00,00,
3767903,108182FE,true,Tx,0,8,0F,C6,00,00,00,00,00,00,
3769136,108182FE,true,Tx,0,8,00,C7,00,00,00,00,00,00,
3770443,1081827E,true,Rx,0,8,29,BB,00,00,00,00,00,00,
3770405,108182FE,true,Tx,0,8,01,C7,00,00,00,00,00,00,
3771595,108182FE,true,Tx,0,8,02,C7,00,00,00,00,00,00,
3772725,1081827E,true,Rx,0,8,2A,BB,00,00,00,00,00,00,
3772761,108182FE,true,Tx,0,8,03,C7,00,00,00,00,00,00,
3774271,108182FE,true,Tx,0,8,04,C7,00,00,00,00,00,00,
3775097,1081827E,true,Rx,0,8,2B,BB,00,00,00,00,00,00,
3775805,108182FE,true,Tx,0,8,05,C7,00,00,00,00,00,00,
3777339,1081827E,true,Rx,0,8,2C,BB,00,00,00,00,00,00,
3776988,108182FE,true,Tx,0,8,06,C7,00,00,00,00,00,00,
3778137,108182FE,true,Tx,0,8,07,C7,00,00,00,00,00,00,
3779279,108182FE,true,Tx,0,8,08,C7,00,00,00,00,00,00,
3780834,1081827E,true,Rx,0,8,2D,BB,00,00,00,00,00,00,
3780835,1081827E,true,Rx,0,8,2E,BB,00,00,00,00,00,00,
3780466,108182FE,true,Tx,0,8,09,C7,00,00,00,00,00,00,
3781606,108182FE,true,Tx,0,8,0A,C7,00,00,00,00,00,00,
3782747,108182FE,true,Tx,0,8,0B,C7,00,00,00,00,00,00,
3784296,1081827E,true,Rx,0,8,2F,BB,00,00,00,00,00,00,
3783860,108182FE,true,Tx,0,8,0C,C7,00,00,00,00,00,00,
3785096,108182FE,true,Tx,0,8,0D,C7,00,00,00,00,00,00,
3786329,108182FE,true,Tx,0,8,0E,C7,00,00,00,00,00,00,
3787840,1081827E,true,Rx,0,8,20,BC,00,00,00,00,00,00,
3787841,1081827E,true,Rx,0,8,21,BC,00,00,00,00,00,00,
3787455,108182FE,true,Tx,0,8,0F,C7,00,00,00,00,00,00,
3788599,108182FE,true,Tx,0,8,00,C8,00,00,00,00,00,00,
3789762,108182FE,true,Tx,0,8,01,C8,00,00,00,00,00,00,
3791437,1081827E,true,Rx,0,8,22,BC,00,00,00,00,00,00,
3791236,108182FE,true,Tx,0,8,02,C8,00,00,00,00,00,00,
3792384,108182FE,true,Tx,0,8,03,C8,00,00,00,00,00,00,
3793654,1081827E,true,Rx,0,8,23,BC,00,00,00,00,00,00,
3793551,108182FE,true,Tx,0,8,04,C8,00,00,00,00,00,00,
3794646,108182FE,true,Tx,0,8,05,C8,00,00,00,00,00,00,
3795808,108182FE,true,Tx,0,8,06,C8,00,00,00,00,00,00,
3797118,1081827E,true,Rx,0,8,24,BC,00,00,00,00,00,00,
3797119,1081827E,true,Rx,0,8,25,BC,00,00,00,00,00,00,
3796892,108182FE,true,Tx,0,8,07,C8,00,00,00,00,00,00,
3798023,108182FE,true,Tx,0,8,08,C8,00,00,00,00,00,00,
3799092,108182FE,true,Tx,0,8,09,C8,00,00,00,00,00,00,
3800607,1081827E,true,Rx,0,8,26,BC,00,00,00,00,00,00,
3800268,108182FE,true,Tx,0,8,0A,C8,00,00,00,00,00,00,
3801336,108182FE,true,Tx,0,8,0B,C8,00,00,00,00,00,00,
3802954,1081827E,true,Rx,0,8,27,BC,00,00,00,00,00,00,
3802462,108182FE,true,Tx,0,8,0C,C8,00,00,00,00,00,00,
3803543,108182FE,true,Tx,0,8,0D,C8,00,00,00,00,00,00,
3804699,108182FE,true,Tx,0,8,0E,C8,00,00,00,00,00,00,
3805299,1081827E,true,Rx,0,8,28,BC,00,00,00,00,00,00,
3805802,108182FE,true,Tx,0,8,0F,C8,00,00,00,00,00,00,
3807603,1081827E,true,Rx,0,8,29,BC,00,00,00,00,00,00,
3807082,108182FE,true,Tx,0,8,00,C9,00,00,00,00,00,00,
3808573,108182FE,true,Tx,0,8,01,C9,00,00,00,00,00,00,
3809944,1081827E,true,Rx,0,8,2A,BC,00,00,00,00,00,00,
3809808,108182FE,true,Tx,0,8,02,C9,00,00,00,00,00,00,
3810945,108182FE,true,Tx,0,8,03,C9,00,00,00,00,00,00,
3812288,1081827E,true,Rx,0,8,2B,BC,00,00,00,00,00,00,
3812459,108182FE,true,Tx,0,8,04,C9,00,00,00,00,00,00,
3813675,108182FE,true,Tx,0,8,05,C9,00,00,00,00,00,00,
3814605,1081827E,true,Rx,0,8,2C,BC,00,00,00,00,00,00,
3814946,108182FE,true,Tx,0,8,06,C9,00,00,00,00,00,00,
3816144,108182FE,true,Tx,0,8,07,C9,00,00,00,00,00,00,
3816948,1081827E,true,Rx,0,8,2D,BC,00,00,00,00,00,00,
3817306,108182FE,true,Tx,0,8,08,C9,00,00,00,00,00,00,
3818461,108182FE,true,Tx,0,8,09,C9,00,00,00,00,00,00,
3819299,1081827E,true,Rx,0,8,2E,BC,00,00,00,00,00,00,
3819616,108182FE,true,Tx,0,8,0A,C9,00,00,00,00,00,00,
3820983,108182FE,true,Tx,0,8,0B,C9,00,00,00,00,00,00,
3821605,1081827E,true,Rx,0,8,2F,BC,00,00,00,00,00,00,
3822224,108182FE,true,Tx,0,8,0C,C9,00,00,00,00,00,00,
3823960,1081827E,true,Rx,0,8,20,BD,00,00,00,00,00,00,
3823850,108182FE,true,Tx,0,8,0D,C9,00,00,00,00,00,00,
3825533,108182FE,true,Tx,0,8,0E,C9,00,00,00,00,00,00,
3826228,1081827E,true,Rx,0,8,21,BD,00,00,00,00,00,00,
3826769,108182FE,true,Tx,0,8,0F,C9,00,00,00,00,00,00,
3827952,108182FE,true,Tx,0,8,00,CA,00,00,00,00,00,00,
3828555,1081827E,true,Rx,0,8,22,BD,00,00,00,00,00,00,
3829132,108182FE,true,Tx,0,8,01,CA,00,00,00,00,00,00,
3830348,108182FE,true,Tx,0,8,02,CA,00,00,00,00,00,00,
3830901,1081827E,true,Rx,0,8,23,BD,00,00,00,00,00,00,
3831576,108182FE,true,Tx,0,8,03,CA,00,00,00,00,00,00,
3833180,1081827E,true,Rx,0,8,24,BD,00,00,00,00,00,00,
3832838,108182FE,true,Tx,0,8,04,CA,00,00,00,00,00,00,
3834097,108182FE,true,Tx,0,8,05,CA,00,00,00,00,00,00,
3835480,1081827E,true,Rx,0,8,25,BD,00,00,00,00,00,00,
3835436,108182FE,true,Tx,0,8,06,CA,00,00,00,00,00,00,
3836704,108182FE,true,Tx,0,8,07,CA,00,00,00,00,00,00,
3837829,1081827E,true,Rx,0,8,27,BD,00,00,00,00,00,00,
3837959,108182FE,true,Tx,0,8,08,CA,00,00,00,00,00,00,
3839198,108182FE,true,Tx,0,8,09,CA,00,00,00,00,00,00,
3840129,1081827E,true,Rx,0,8,29,BD,00,00,00,00,00,00,
3840612,108182FE,true,Tx,0,8,0A,CA,00,00,00,00,00,00,
3842486,1081827E,true,Rx,0,8,2B,BD,00,00,00,00,00,00,
3842272,108182FE,true,Tx,0,8,0B,CA,00,00,00,00,00,00,
3843482,108182FE,true,Tx,0,8,0C,CA,00,00,00,00,00,00,
3844731,108182FE,true,Tx,0,8,0D,CA,00,00,00,00,00,00,
3845948,1081827E,true,Rx,0,8,2C,BD,00,00,00,00,00,00,
3845949,1081827E,true,Rx,0,8,2E,BD,00,00,00,00,00,00,
3845887,108182FE,true,Tx,0,8,0E,CA,00,00,00,00,00,00,
3847048,108182FE,true,Tx,0,8,0F,CA,00,00,00,00,00,00,
3848157,108182FE,true,Tx,0,8,00,CB,00,00,00,00,00,00,
3849362,108182FE,true,Tx,0,8,01,CB,00,00,00,00,00,00,
3850604,1081827E,true,Rx,0,8,20,BE,00,00,00,00,00,00,
3850605,1081827E,true,Rx,0,8,22,BE,00,00,00,00,00,00,
3850501,108182FE,true,Tx,0,8,02,CB,00,00,00,00,00,00,
3851643,108182FE,true,Tx,0,8,03,CB,00,00,00,00,00,00,
3852750,108182FE,true,Tx,0,8,04,CB,00,00,00,00,00,00,
3854130,1081827E,true,Rx,0,8,24,BE,00,00,00,00,00,00,
3854045,108182FE,true,Tx,0,8,05,CB,00,00,00,00,00,00,
3855172,108182FE,true,Tx,0,8,06,CB,00,00,00,00,00,00,
3856479,1081827E,true,Rx,0,8,26,BE,00,00,00,00,00,00,
3856496,108182FE,true,Tx,0,8,07,CB,00,00,00,00,00,00,
3858243,108182FE,true,Tx,0,8,08,CB,00,00,00,00,00,00,
3858833,1081827E,true,Rx,0,8,28,BE,00,00,00,00,00,00,
3859614,108182FE,true,Tx,0,8,09,CB,00,00,00,00,00,00,
3861181,1081827E,true,Rx,0,8,2A,BE,00,00,00,00,00,00,
3860933,108182FE,true,Tx,0,8,0A,CB,00,00,00,00,00,00,
3862180,108182FE,true,Tx,0,8,0B,CB,00,00,00,00,00,00,
3863574,1081827E,true,Rx,0,8,2C,BE,00,00,00,00,00,00,
3863401,108182FE,true,Tx,0,8,0C,CB,00,00,00,00,00,00,
3864651,108182FE,true,Tx,0,8,0D,CB,00,00,00,00,00,00,
3865839,1081827E,true,Rx,0,8,2E,BE,00,00,00,00,00,00,
3865839,108182FE,true,Tx,0,8,0E,CB,00,00,00,00,00,00,
