Time Stamp,ID,Extended,Dir,Bus,LEN,D1,D2,D3,D4,D5,D6,D7,D8
1708371,1001117E,true,Rx,0,8,00,01,00,01,00,00,00,00,
2090377,1001117E,true,Rx,0,8,00,01,00,01,00,00,00,00,
2484429,1001117E,true,Rx,0,8,00,01,00,00,00,00,00,00,
2875425,1001117E,true,Rx,0,8,00,01,00,00,00,00,00,00,
3275409,1001117E,true,Rx,0,8,00,01,00,00,00,00,00,00,
3481074,100011FE,true,Rx,0,8,00,02,00,00,00,00,00,00,
3667065,1001117E,true,Rx,0,8,00,01,00,00,00,00,00,00,
4062462,1001117E,true,Rx,0,8,00,01,00,00,00,00,00,00,
4454301,1001117E,true,Rx,0,8,00,01,00,00,00,00,00,00,
4850472,1001117E,true,Rx,0,8,00,01,00,00,00,00,00,00,
5241445,1001117E,true,Rx,0,8,00,01,00,00,00,00,00,00,
5635570,1001117E,true,Rx,0,8,00,01,00,00,00,00,00,00,
6028553,1001117E,true,Rx,0,8,00,01,00,00,00,00,00,00,
6419479,1001117E,true,Rx,0,8,00,01,00,00,00,00,00,00,
6612694,100011FE,true,Rx,0,8,00,02,00,00,00,00,00,00,
6805563,1001117E,true,Rx,0,8,00,01,00,00,00,00,00,00,
7197044,1001117E,true,Rx,0,8,00,01,00,00,00,00,00,00,
7583610,1001117E,true,Rx,0,8,00,01,00,00,00,00,00,00,
7971599,1001117E,true,Rx,0,8,00,01,00,00,00,00,00,00,
8362570,1001117E,true,Rx,0,8,00,01,00,00,00,00,00,00,
8755537,1001117E,true,Rx,0,8,00,01,00,00,00,00,00,00,
9151607,1001117E,true,Rx,0,8,00,01,00,00,00,00,00,00,
9543406,1001117E,true,Rx,0,8,00,01,00,00,00,00,00,00,
9726849,100011FE,true,Rx,0,8,00,02,00,00,00,00,00,00,
9932570,1001117E,true,Rx,0,8,00,01,00,00,00,00,00,00,
10327586,1001117E,true,Rx,0,8,00,01,00,00,00,00,00,00,
10720618,1001117E,true,Rx,0,8,00,01,00,00,00,00,00,00,
11115470,1001117E,true,Rx,0,8,00,01,00,00,00,00,00,00,
11338179,108182FE,true,Tx,0,8,04,6F,00,00,00,00,00,00,
11339833,108182FE,true,Tx,0,8,05,6F,00,00,00,00,00,00,
11341386,1081827E,true,Rx,0,8,24,6F,00,00,00,00,00,00,
11341663,108182FE,true,Tx,0,8,06,6F,00,00,00,00,00,00,
11343365,108182FE,true,Tx,0,8,07,6F,00,00,00,00,00,00,
11344843,1081827E,true,Rx,0,8,25,6F,00,00,00,00,00,00,
11344882,108182FE,true,Tx,0,8,08,6F,00,00,00,00,00,00,
11346323,108182FE,true,Tx,0,8,09,6F,00,00,00,00,00,00,
11347150,1081827E,true,Rx,0,8,26,6F,00,00,00,00,00,00,
11348498,108182FE,true,Tx,0,8,0A,6F,00,00,00,00,00,00,
11349476,1081827E,true,Rx,0,8,27,6F,00,00,00,00,00,00,
11349875,108182FE,true,Tx,0,8,0B,6F,00,00,00,00,00,00,
11351034,108182FE,true,Tx,0,8,0C,6F,00,00,00,00,00,00,
11351818,1081827E,true,Rx,0,8,28,6F,00,00,00,00,00,00,
11352277,108182FE,true,Tx,0,8,0D,6F,00,00,00,00,00,00,
11353447,108182FE,true,Tx,0,8,0E,6F,00,00,00,00,00,00,
11354106,1081827E,true,Rx,0,8,29,6F,00,00,00,00,00,00,
11354590,108182FE,true,Tx,0,8,0F,6F,00,00,00,00,00,00,
11355762,108182FE,true,Tx,0,8,00,70,00,00,00,00,00,00,
11356415,1081827E,true,Rx,0,8,2A,6F,00,00,00,00,00,00,
11356887,108182FE,true,Tx,0,8,01,70,00,00,00,00,00,00,
11358040,108182FE,true,Tx,0,8,02,70,00,00,00,00,00,00,
11358730,1081827E,true,Rx,0,8,2B,6F,00,00,00,00,00,00,
11359434,108182FE,true,Tx,0,8,03,70,00,00,00,00,00,00,
11360660,108182FE,true,Tx,0,8,04,70,00,00,00,00,00,00,
11361040,1081827E,true,Rx,0,8,2C,6F,00,00,00,00,00,00,
11361926,108182FE,true,Tx,0,8,05,70,00,00,00,00,00,00,
11363366,1081827E,true,Rx,0,8,2D,6F,00,00,00,00,00,00,
11363391,108182FE,true,Tx,0,8,06,70,00,00,00,00,00,00,
11364930,108182FE,true,Tx,0,8,07,70,00,00,00,00,00,00,
11365712,1081827E,true,Rx,0,8,2E,6F,00,00,00,00,00,00,
11366392,108182FE,true,Tx,0,8,08,70,00,00,00,00,00,00,
11367674,108182FE,true,Tx,0,8,09,70,00,00,00,00,00,00,
11368007,1081827E,true,Rx,0,8,2F,6F,00,00,00,00,00,00,
11368797,108182FE,true,Tx,0,8,0A,70,00,00,00,00,00,00,
11369934,108182FE,true,Tx,0,8,0B,70,00,00,00,00,00,00,
11370347,1081827E,true,Rx,0,8,20,70,00,00,00,00,00,00,
11371061,108182FE,true,Tx,0,8,0C,70,00,00,00,00,00,00,
11372191,108182FE,true,Tx,0,8,0D,70,00,00,00,00,00,00,
11372717,1081827E,true,Rx,0,8,01,70,00,00,00,00,00,00,
11373330,108182FE,true,Tx,0,8,0E,70,00,00,00,00,00,00,
11374472,108182FE,true,Tx,0,8,0F,70,00,00,00,00,00,00,
11375070,1081827E,true,Rx,0,8,22,70,00,00,00,00,00,00,
11375586,108182FE,true,Tx,0,8,00,71,00,00,00,00,00,00,
11376757,108182FE,true,Tx,0,8,01,71,00,00,00,00,00,00,
11377379,1081827E,true,Rx,0,8,23,70,00,00,00,00,00,00,
11377901,108182FE,true,Tx,0,8,02,71,00,00,00,00,00,00,
11379013,108182FE,true,Tx,0,8,03,71,00,00,00,00,00,00,
11379720,1081827E,true,Rx,0,8,24,70,00,00,00,00,00,00,
11380464,108182FE,true,Tx,0,8,04,71,00,00,00,00,00,00,
11382041,1081827E,true,Rx,0,8,25,70,00,00,00,00,00,00,
11381941,108182FE,true,Tx,0,8,05,71,00,00,00,00,00,00,
11383129,108182FE,true,Tx,0,8,06,71,00,00,00,00,00,00,
11384343,1081827E,true,Rx,0,8,26,70,00,00,00,00,00,00,
11384257,108182FE,true,Tx,0,8,07,71,00,00,00,00,00,00,
11385404,108182FE,true,Tx,0,8,08,71,00,00,00,00,00,00,
11386717,1081827E,true,Rx,0,8,27,70,00,00,00,00,00,00,
11386510,108182FE,true,Tx,0,8,09,71,00,00,00,00,00,00,
11387660,108182FE,true,Tx,0,8,0A,71,00,00,00,00,00,00,
11388989,1081827E,true,Rx,0,8,28,70,00,00,00,00,00,00,
11388740,108182FE,true,Tx,0,8,0B,71,00,00,00,00,00,00,
11391324,1081827E,true,Rx,0,8,29,70,00,00,00,00,00,00,
11393726,1081827E,true,Rx,0,8,2A,70,00,00,00,00,00,00,
11395985,1081827E,true,Rx,0,8,2B,70,00,00,00,00,00,00,
11398337,1081827E,true,Rx,0,8,2C,70,00,00,00,00,00,00,
11400712,1081827E,true,Rx,0,8,2D,70,00,00,00,00,00,00,
11402065,108182FE,true,Tx,0,8,0C,71,00,00,00,00,00,00,
11402983,1081827E,true,Rx,0,8,2E,70,00,00,00,00,00,00,
11405310,1081827E,true,Rx,0,8,2F,70,00,00,00,00,00,00,
11407721,1081827E,true,Rx,0,8,20,71,00,00,00,00,00,00,
11409942,1081827E,true,Rx,0,8,01,71,00,00,00,00,C9,B8,
11412262,1081827E,true,Rx,0,8,22,71,00,00,00,00,00,00,
11414602,1081827E,true,Rx,0,8,23,71,00,00,00,00,00,00,
11415741,1081827E,true,Rx,0,8,24,71,00,00,00,00,00,00,
11418231,108182FE,true,Tx,0,8,0D,71,00,00,00,00,00,00,
11419187,1081827E,true,Rx,0,8,25,71,00,00,00,00,00,00,
11421535,1081827E,true,Rx,0,8,26,71,00,00,00,00,00,00,
11423810,1081827E,true,Rx,0,8,27,71,00,00,00,00,00,00,
11426128,1081827E,true,Rx,0,8,28,71,00,00,00,00,00,00,
11428441,1081827E,true,Rx,0,8,29,71,00,00,00,00,00,00,
11430789,1081827E,true,Rx,0,8,2A,71,00,00,00,00,00,00,
11432635,108182FE,true,Tx,0,8,0E,71,00,00,00,00,00,00,
11433071,1081827E,true,Rx,0,8,2B,71,00,00,00,00,00,00,
11435386,1081827E,true,Rx,0,8,2C,71,00,00,00,00,00,00,
11435172,108182FE,true,Tx,0,8,0F,71,00,00,00,00,00,00,
11436735,108182FE,true,Tx,0,8,00,72,00,00,00,00,00,00,
11437706,1081827E,true,Rx,0,8,2D,71,00,00,00,00,00,00,
11438412,108182FE,true,Tx,0,8,01,72,00,00,00,00,00,00,
11440007,1081827E,true,Rx,0,8,2E,71,00,00,00,00,00,00,
11439825,108182FE,true,Tx,0,8,02,72,00,00,00,00,00,00,
11441437,108182FE,true,Tx,0,8,03,72,00,00,00,00,00,00,
11442328,1081827E,true,Rx,0,8,2F,71,00,00,00,00,00,00,
11443602,108182FE,true,Tx,0,8,04,72,00,00,00,00,00,00,
11444719,1081827E,true,Rx,0,8,20,72,00,00,00,00,00,00,
11445430,108182FE,true,Tx,0,8,05,72,00,00,00,00,00,00,
11447013,1081827E,true,Rx,0,8,01,72,00,00,00,00,00,00,
11447381,108182FE,true,Tx,0,8,06,72,00,00,00,00,00,00,
11449325,1081827E,true,Rx,0,8,22,72,00,00,00,00,00,00,
11451611,1081827E,true,Rx,0,8,23,72,00,00,00,00,00,00,
11451835,108182FE,true,Tx,0,8,07,72,00,00,00,00,00,00,
11453091,108182FE,true,Tx,0,8,08,72,00,00,00,00,00,00,
11453924,1081827E,true,Rx,0,8,24,72,00,00,00,00,00,00,
11454307,108182FE,true,Tx,0,8,09,72,00,00,00,00,00,00,
11455481,108182FE,true,Tx,0,8,0A,72,00,00,00,00,00,00,
11456260,1081827E,true,Rx,0,8,25,72,00,00,00,00,00,00,
11456870,108182FE,true,Tx,0,8,0B,72,00,00,00,00,00,00,
11458099,108182FE,true,Tx,0,8,0C,72,00,00,00,00,00,00,
11458582,1081827E,true,Rx,0,8,26,72,00,00,00,00,00,00,
11459320,108182FE,true,Tx,0,8,0D,72,00,00,00,00,00,00,
11460495,108182FE,true,Tx,0,8,0E,72,00,00,00,00,00,00,
11460858,1081827E,true,Rx,0,8,27,72,00,00,00,00,00,00,
11461662,108182FE,true,Tx,0,8,0F,72,00,00,00,00,00,00,
11462793,108182FE,true,Tx,0,8,00,73,00,00,00,00,00,00,
11463188,1081827E,true,Rx,0,8,28,72,00,00,00,00,00,00,
11463949,108182FE,true,Tx,0,8,01,73,00,00,00,00,00,00,
11465039,108182FE,true,Tx,0,8,02,73,00,00,00,00,00,00,
11465524,1081827E,true,Rx,0,8,29,72,00,00,00,00,00,00,
11466185,108182FE,true,Tx,0,8,03,73,00,00,00,00,00,00,
11467818,1081827E,true,Rx,0,8,2A,72,00,00,00,00,00,00,
11467591,108182FE,true,Tx,0,8,04,73,00,00,00,00,00,00,
11468871,108182FE,true,Tx,0,8,05,73,00,00,00,00,00,00,
11470134,1081827E,true,Rx,0,8,2B,72,00,00,00,00,00,00,
11470237,108182FE,true,Tx,0,8,06,73,00,00,00,00,00,00,
11471697,108182FE,true,Tx,0,8,07,73,00,00,00,00,00,00,
11472458,1081827E,true,Rx,0,8,2C,72,00,00,00,00,00,00,
11473240,108182FE,true,Tx,0,8,08,73,00,00,00,00,00,00,
11474774,1081827E,true,Rx,0,8,2D,72,00,00,00,00,00,00,
11474557,108182FE,true,Tx,0,8,09,73,00,00,00,00,00,00,
11476012,108182FE,true,Tx,0,8,0A,73,00,00,00,00,00,00,
11477119,1081827E,true,Rx,0,8,2E,72,00,00,00,00,00,00,
11477287,108182FE,true,Tx,0,8,0B,73,00,00,00,00,00,00,
11478576,108182FE,true,Tx,0,8,0C,73,00,00,00,00,00,00,
11479429,1081827E,true,Rx,0,8,2F,72,00,00,00,00,00,00,
11479841,108182FE,true,Tx,0,8,0D,73,00,00,00,00,00,00,
11481052,108182FE,true,Tx,0,8,0E,73,00,00,00,00,00,00,
11481761,1081827E,true,Rx,0,8,20,73,00,00,00,00,00,00,
11482210,108182FE,true,Tx,0,8,0F,73,00,00,00,00,00,00,
11483352,108182FE,true,Tx,0,8,00,74,00,00,00,00,00,00,
11484119,1081827E,true,Rx,0,8,01,73,00,00,00,00,00,00,
11484530,108182FE,true,Tx,0,8,01,74,00,00,00,00,00,00,
11485664,108182FE,true,Tx,0,8,02,74,00,00,00,00,00,00,
11486426,1081827E,true,Rx,0,8,22,73,00,00,00,00,00,00,
11486824,108182FE,true,Tx,0,8,03,74,00,00,00,00,00,00,
11487586,1081827E,true,Rx,0,8,23,73,00,00,00,00,00,00,
11487991,108182FE,true,Tx,0,8,04,74,00,00,00,00,00,00,
11489492,108182FE,true,Tx,0,8,05,74,00,00,00,00,00,00,
11491065,1081827E,true,Rx,0,8,24,73,00,00,00,00,00,00,
11491444,108182FE,true,Tx,0,8,06,74,00,00,00,00,00,00,
11492585,108182FE,true,Tx,0,8,07,74,00,00,00,00,00,00,
11493366,1081827E,true,Rx,0,8,25,73,00,00,00,00,00,00,
11493792,108182FE,true,Tx,0,8,08,74,00,00,00,00,00,00,
11494900,108182FE,true,Tx,0,8,09,74,00,00,00,00,00,00,
11495714,1081827E,true,Rx,0,8,26,73,00,00,00,00,00,00,
11496083,108182FE,true,Tx,0,8,0A,74,00,00,00,00,00,00,
11497168,108182FE,true,Tx,0,8,0B,74,00,00,00,00,00,00,
11498015,1081827E,true,Rx,0,8,27,73,00,00,00,00,00,00,
11498305,108182FE,true,Tx,0,8,0C,74,00,00,00,00,00,00,
11499381,108182FE,true,Tx,0,8,0D,74,00,00,00,00,00,00,
11500326,1081827E,true,Rx,0,8,28,73,00,00,00,00,00,00,
11500491,108182FE,true,Tx,0,8,0E,74,00,00,00,00,00,00,
11501595,108182FE,true,Tx,0,8,0F,74,00,00,00,00,00,00,
11502635,1081827E,true,Rx,0,8,29,73,00,00,00,00,00,00,
11502741,108182FE,true,Tx,0,8,00,75,00,00,00,00,00,00,
11503790,1081827E,true,Rx,0,8,2A,73,00,00,00,00,00,00,
11503883,108182FE,true,Tx,0,8,01,75,00,00,00,00,00,00,
11505004,108182FE,true,Tx,0,8,02,75,00,00,00,00,00,00,
11506633,108182FE,true,Tx,0,8,03,75,00,00,00,00,00,00,
11507268,1081827E,true,Rx,0,8,2B,73,00,00,00,00,00,00,
11508184,108182FE,true,Tx,0,8,04,75,00,00,00,00,00,00,
11509573,1081827E,true,Rx,0,8,2C,73,00,00,00,00,00,00,
11509423,108182FE,true,Tx,0,8,05,75,00,00,00,00,00,00,
11510578,108182FE,true,Tx,0,8,06,75,00,00,00,00,00,00,
11511886,1001117E,true,Rx,0,8,00,01,00,00,00,00,00,00,
11511731,108182FE,true,Tx,0,8,07,75,00,00,00,00,00,00,
11513062,1081827E,true,Rx,0,8,2D,73,00,00,00,00,00,00,
11512918,108182FE,true,Tx,0,8,08,75,00,00,00,00,00,00,
11514046,108182FE,true,Tx,0,8,09,75,00,00,00,00,00,00,
11515376,1081827E,true,Rx,0,8,2E,73,00,00,00,00,00,00,
11515254,108182FE,true,Tx,0,8,0A,75,00,00,00,00,00,00,
11516355,108182FE,true,Tx,0,8,0B,75,00,00,00,00,00,00,
11517730,1081827E,true,Rx,0,8,2F,73,00,00,00,00,00,00,
11517502,108182FE,true,Tx,0,8,0C,75,00,00,00,00,00,00,
11518602,108182FE,true,Tx,0,8,0D,75,00,00,00,00,00,00,
11520061,1081827E,true,Rx,0,8,20,74,00,00,00,00,00,00,
11519752,108182FE,true,Tx,0,8,0E,75,00,00,00,00,00,00,
11520952,108182FE,true,Tx,0,8,0F,75,00,00,00,00,00,00,
11522423,1081827E,true,Rx,0,8,01,74,00,00,00,00,00,00,
11523286,108182FE,true,Tx,0,8,00,76,00,00,00,00,00,00,
11524759,1081827E,true,Rx,0,8,22,74,00,00,00,00,00,00,
11524740,108182FE,true,Tx,0,8,01,76,00,00,00,00,00,00,
11526042,108182FE,true,Tx,0,8,02,76,00,00,00,00,00,00,
11527067,1081827E,true,Rx,0,8,23,74,00,00,00,00,00,00,
11527409,108182FE,true,Tx,0,8,03,76,00,00,00,00,00,00,
11528561,108182FE,true,Tx,0,8,04,76,00,00,00,00,00,00,
11529401,1081827E,true,Rx,0,8,24,74,00,00,00,00,00,00,
11529852,108182FE,true,Tx,0,8,05,76,00,00,00,00,00,00,
11531018,108182FE,true,Tx,0,8,06,76,00,00,00,00,00,00,
11531717,1081827E,true,Rx,0,8,25,74,00,00,00,00,00,00,
11532193,108182FE,true,Tx,0,8,07,76,00,00,00,00,00,00,
11533340,108182FE,true,Tx,0,8,08,76,00,00,00,00,00,00,
11534048,1081827E,true,Rx,0,8,26,74,00,00,00,00,00,00,
11534493,108182FE,true,Tx,0,8,09,76,00,00,00,00,00,00,
11535583,108182FE,true,Tx,0,8,0A,76,00,00,00,00,00,00,
11536362,1081827E,true,Rx,0,8,27,74,00,00,00,00,00,00,
11536760,108182FE,true,Tx,0,8,0B,76,00,00,00,00,00,00,
11537849,108182FE,true,Tx,0,8,0C,76,00,00,00,00,00,00,
11538726,1081827E,true,Rx,0,8,28,74,00,00,00,00,00,00,
11539364,108182FE,true,Tx,0,8,0D,76,00,00,00,00,00,00,
11541036,1081827E,true,Rx,0,8,29,74,00,00,00,00,00,00,
11540893,108182FE,true,Tx,0,8,0E,76,00,00,00,00,00,00,
11542084,108182FE,true,Tx,0,8,0F,76,00,00,00,00,00,00,
11543344,1081827E,true,Rx,0,8,2A,74,00,00,00,00,00,00,
11543268,108182FE,true,Tx,0,8,00,77,00,00,00,00,00,00,
11544431,108182FE,true,Tx,0,8,01,77,00,00,00,00,00,00,
11545714,1081827E,true,Rx,0,8,2B,74,00,00,00,00,00,00,
11545614,108182FE,true,Tx,0,8,02,77,00,00,00,00,00,00,
11546747,108182FE,true,Tx,0,8,03,77,00,00,00,00,00,00,
11548014,1081827E,true,Rx,0,8,2C,74,00,00,00,00,00,00,
11547883,108182FE,true,Tx,0,8,04,77,00,00,00,00,00,00,
11549031,108182FE,true,Tx,0,8,05,77,00,00,00,00,00,00,
11550322,1081827E,true,Rx,0,8,2D,74,00,00,00,00,00,00,
11550186,108182FE,true,Tx,0,8,06,77,00,00,00,00,00,00,
11551321,108182FE,true,Tx,0,8,07,77,00,00,00,00,00,00,
11552719,1081827E,true,Rx,0,8,2E,74,00,00,00,00,00,00,
11552466,108182FE,true,Tx,0,8,08,77,00,00,00,00,00,00,
11553565,108182FE,true,Tx,0,8,09,77,00,00,00,00,00,00,
11554993,1081827E,true,Rx,0,8,2F,74,00,00,00,00,00,00,
11554686,108182FE,true,Tx,0,8,0A,77,00,00,00,00,00,00,
11556211,108182FE,true,Tx,0,8,0B,77,00,00,00,00,00,00,
11557353,1081827E,true,Rx,0,8,20,75,00,00,00,00,00,00,
11557763,108182FE,true,Tx,0,8,0C,77,00,00,00,00,00,00,
11559644,1081827E,true,Rx,0,8,01,75,00,00,00,00,CD,31,
11559919,108182FE,true,Tx,0,8,0D,77,00,00,00,00,00,00,
11561210,108182FE,true,Tx,0,8,0E,77,00,00,00,00,00,00,
11561952,1081827E,true,Rx,0,8,22,75,00,00,00,00,00,00,
11562359,108182FE,true,Tx,0,8,0F,77,00,00,00,00,00,00,
11563516,108182FE,true,Tx,0,8,00,78,00,00,00,00,00,00,
11564285,1081827E,true,Rx,0,8,23,75,00,00,00,00,00,00,
11564645,108182FE,true,Tx,0,8,01,78,00,00,00,00,00,00,
11565413,1081827E,true,Rx,0,8,24,75,00,00,00,00,00,00,
11565819,108182FE,true,Tx,0,8,02,78,00,00,00,00,00,00,
11566898,108182FE,true,Tx,0,8,03,78,00,00,00,00,00,00,
11568035,108182FE,true,Tx,0,8,04,78,00,00,00,00,00,00,
11568915,1081827E,true,Rx,0,8,25,75,00,00,00,00,00,00,
11569189,108182FE,true,Tx,0,8,05,78,00,00,00,00,00,00,
11570367,108182FE,true,Tx,0,8,06,78,00,00,00,00,00,00,
11571227,1081827E,true,Rx,0,8,26,75,00,00,00,00,00,00,
11571489,108182FE,true,Tx,0,8,07,78,00,00,00,00,00,00,
11572988,108182FE,true,Tx,0,8,08,78,00,00,00,00,00,00,
11573614,1081827E,true,Rx,0,8,27,75,00,00,00,00,00,00,
11575250,108182FE,true,Tx,0,8,09,78,00,00,00,00,00,00,
11575895,1081827E,true,Rx,0,8,28,75,00,00,00,00,00,00,
11576522,108182FE,true,Tx,0,8,0A,78,00,00,00,00,00,00,
11577699,108182FE,true,Tx,0,8,0B,78,00,00,00,00,00,00,
11578199,1081827E,true,Rx,0,8,29,75,00,00,00,00,00,00,
11578921,108182FE,true,Tx,0,8,0C,78,00,00,00,00,00,00,
11580091,108182FE,true,Tx,0,8,0D,78,00,00,00,00,00,00,
11580466,1081827E,true,Rx,0,8,2A,75,00,00,00,00,00,00,
11581261,108182FE,true,Tx,0,8,0E,78,00,00,00,00,00,00,
11582424,108182FE,true,Tx,0,8,0F,78,00,00,00,00,00,00,
11582786,1081827E,true,Rx,0,8,2B,75,00,00,00,00,00,00,
11584007,108182FE,true,Tx,0,8,00,79,00,00,00,00,00,00,
11585099,1081827E,true,Rx,0,8,2C,75,00,00,00,00,00,00,
11585537,108182FE,true,Tx,0,8,01,79,00,00,00,00,00,00,
11586671,108182FE,true,Tx,0,8,02,79,00,00,00,00,00,00,
11587433,1081827E,true,Rx,0,8,2D,75,00,00,00,00,00,00,
11587815,108182FE,true,Tx,0,8,03,79,00,00,00,00,00,00,
11589308,108182FE,true,Tx,0,8,04,79,00,00,00,00,00,00,
11589742,1081827E,true,Rx,0,8,2E,75,00,00,00,00,00,00,
11590888,108182FE,true,Tx,0,8,05,79,00,00,00,00,00,00,
11592079,1081827E,true,Rx,0,8,2F,75,00,00,00,00,00,00,
11592449,108182FE,true,Tx,0,8,06,79,00,00,00,00,00,00,
11593636,108182FE,true,Tx,0,8,07,79,00,00,00,00,00,00,
11594413,1081827E,true,Rx,0,8,20,76,00,00,00,00,00,00,
11594763,108182FE,true,Tx,0,8,08,79,00,00,00,00,00,00,
11595938,108182FE,true,Tx,0,8,09,79,00,00,00,00,00,00,
11596725,1081827E,true,Rx,0,8,01,76,00,00,00,00,02,4A,
11597055,108182FE,true,Tx,0,8,0A,79,00,00,00,00,00,00,
11598222,108182FE,true,Tx,0,8,0B,79,00,00,00,00,00,00,
11599042,1081827E,true,Rx,0,8,22,76,00,00,00,00,00,00,
11599342,108182FE,true,Tx,0,8,0C,79,00,00,00,00,00,00,
11600521,108182FE,true,Tx,0,8,0D,79,00,00,00,00,00,00,
11601375,1081827E,true,Rx,0,8,23,76,00,00,00,00,00,00,
11601634,108182FE,true,Tx,0,8,0E,79,00,00,00,00,00,00,
11602761,108182FE,true,Tx,0,8,0F,79,00,00,00,00,00,00,
11603719,1081827E,true,Rx,0,8,24,76,00,00,00,00,00,00,
11603857,108182FE,true,Tx,0,8,00,7A,00,00,00,00,00,00,
11605016,108182FE,true,Tx,0,8,01,7A,00,00,00,00,00,00,
11605989,1081827E,true,Rx,0,8,25,76,00,00,00,00,00,00,
11606315,108182FE,true,Tx,0,8,02,7A,00,00,00,00,00,00,
11607878,108182FE,true,Tx,0,8,03,7A,00,00,00,00,00,00,
11608305,1081827E,true,Rx,0,8,26,76,00,00,00,00,00,00,
11610102,108182FE,true,Tx,0,8,04,7A,00,00,00,00,00,00,
11610613,1081827E,true,Rx,0,8,27,76,00,00,00,00,00,00,
11612347,108182FE,true,Tx,0,8,05,7A,00,00,00,00,00,00,
11612982,1081827E,true,Rx,0,8,28,76,00,00,00,00,00,00,
11613916,108182FE,true,Tx,0,8,06,7A,00,00,00,00,00,00,
11615257,1081827E,true,Rx,0,8,29,76,00,00,00,00,00,00,
11615064,108182FE,true,Tx,0,8,07,7A,00,00,00,00,00,00,
11616157,108182FE,true,Tx,0,8,08,7A,00,00,00,00,00,00,
11617565,1081827E,true,Rx,0,8,2A,76,00,00,00,00,00,00,
11617314,108182FE,true,Tx,0,8,09,7A,00,00,00,00,00,00,
11618401,108182FE,true,Tx,0,8,0A,7A,00,00,00,00,00,00,
11619543,108182FE,true,Tx,0,8,0B,7A,00,00,00,00,00,00,
11619900,1081827E,true,Rx,0,8,2B,76,00,00,00,00,00,00,
11620702,108182FE,true,Tx,0,8,0C,7A,00,00,00,00,00,00,
11621825,108182FE,true,Tx,0,8,0D,7A,00,00,00,00,00,00,
11622205,1081827E,true,Rx,0,8,2C,76,00,00,00,00,00,00,
11623338,108182FE,true,Tx,0,8,0E,7A,00,00,00,00,00,00,
11624529,1081827E,true,Rx,0,8,2D,76,00,00,00,00,00,00,
11624881,108182FE,true,Tx,0,8,0F,7A,00,00,00,00,00,00,
11626465,108182FE,true,Tx,0,8,00,7B,00,00,00,00,00,00,
11626822,1081827E,true,Rx,0,8,2E,76,00,00,00,00,00,00,
11627731,108182FE,true,Tx,0,8,01,7B,00,00,00,00,00,00,
11629177,1081827E,true,Rx,0,8,2F,76,00,00,00,00,00,00,
11629156,108182FE,true,Tx,0,8,02,7B,00,00,00,00,00,00,
11630337,108182FE,true,Tx,0,8,03,7B,00,00,00,00,00,00,
11631505,1081827E,true,Rx,0,8,20,77,00,00,00,00,00,00,
11631533,108182FE,true,Tx,0,8,04,7B,00,00,00,00,00,00,
11632669,108182FE,true,Tx,0,8,05,7B,00,00,00,00,00,00,
11633842,1081827E,true,Rx,0,8,01,77,00,00,00,00,04,00,
11633872,108182FE,true,Tx,0,8,06,7B,00,00,00,00,00,00,
11634991,1081827E,true,Rx,0,8,22,77,00,00,00,00,00,00,
11634995,108182FE,true,Tx,0,8,07,7B,00,00,00,00,00,00,
11636155,108182FE,true,Tx,0,8,08,7B,00,00,00,00,00,00,
11637263,108182FE,true,Tx,0,8,09,7B,00,00,00,00,00,00,
11638439,1081827E,true,Rx,0,8,23,77,00,00,00,00,00,00,
11638417,108182FE,true,Tx,0,8,0A,7B,00,00,00,00,00,00,
11640772,1081827E,true,Rx,0,8,24,77,00,00,00,00,00,00,
11643082,1081827E,true,Rx,0,8,25,77,00,00,00,00,00,00,
11645380,1081827E,true,Rx,0,8,26,77,00,00,00,00,00,00,
11647719,1081827E,true,Rx,0,8,27,77,00,00,00,00,00,00,
11649996,1081827E,true,Rx,0,8,28,77,00,00,00,00,00,00,
11651661,108182FE,true,Tx,0,8,0B,7B,00,00,00,00,00,00,
11652327,1081827E,true,Rx,0,8,29,77,00,00,00,00,00,00,
11654726,1081827E,true,Rx,0,8,2A,77,00,00,00,00,00,00,
11656991,1081827E,true,Rx,0,8,2B,77,00,00,00,00,00,00,
11659270,1081827E,true,Rx,0,8,2C,77,00,00,00,00,00,00,
11661565,1081827E,true,Rx,0,8,2D,77,00,00,00,00,00,00,
11663867,1081827E,true,Rx,0,8,2E,77,00,00,00,00,00,00,
11666223,1081827E,true,Rx,0,8,2F,77,00,00,00,00,00,00,
11668590,1081827E,true,Rx,0,8,20,78,00,00,00,00,00,00,
11669758,108182FE,true,Tx,0,8,0C,7B,00,00,00,00,00,00,
11670886,1081827E,true,Rx,0,8,01,78,00,00,00,03,A1,60,
11673229,1081827E,true,Rx,0,8,22,78,00,00,00,00,00,00,
11675558,1081827E,true,Rx,0,8,23,78,00,00,00,00,00,00,
11677866,1081827E,true,Rx,0,8,24,78,00,00,00,00,00,00,
11679008,1081827E,true,Rx,0,8,25,78,00,00,00,00,00,00,
11682496,1081827E,true,Rx,0,8,26,78,00,00,00,00,00,00,
11684861,1081827E,true,Rx,0,8,27,78,00,00,00,00,00,00,
11684560,108182FE,true,Tx,0,8,0D,7B,00,00,00,00,00,00,
11686027,108182FE,true,Tx,0,8,0E,7B,00,00,00,00,00,00,
11687171,1081827E,true,Rx,0,8,28,78,00,00,00,00,00,00,
11687386,108182FE,true,Tx,0,8,0F,7B,00,00,00,00,00,00,
11688767,108182FE,true,Tx,0,8,00,7C,00,00,00,00,00,00,
11689507,1081827E,true,Rx,0,8,29,78,00,00,00,00,00,00,
11690551,108182FE,true,Tx,0,8,01,7C,00,00,00,00,00,00,
11691831,1081827E,true,Rx,0,8,2A,78,00,00,00,00,00,00,
11692500,108182FE,true,Tx,0,8,02,7C,00,00,00,00,00,00,
11693007,1081827E,true,Rx,0,8,2B,78,00,00,00,00,00,00,
11694050,108182FE,true,Tx,0,8,03,7C,00,00,00,00,00,00,
11695591,108182FE,true,Tx,0,8,04,7C,00,00,00,00,00,00,
11696469,1081827E,true,Rx,0,8,2C,78,00,00,00,00,00,00,
11696822,108182FE,true,Tx,0,8,05,7C,00,00,00,00,00,00,
11697998,108182FE,true,Tx,0,8,06,7C,00,00,00,00,00,00,
11698801,1081827E,true,Rx,0,8,2D,78,00,00,00,00,00,00,
11699211,108182FE,true,Tx,0,8,07,7C,00,00,00,00,00,00,
11700412,108182FE,true,Tx,0,8,08,7C,00,00,00,00,00,00,
11701139,1081827E,true,Rx,0,8,2E,78,00,00,00,00,00,00,
11701595,108182FE,true,Tx,0,8,09,7C,00,00,00,00,00,00,
11702785,108182FE,true,Tx,0,8,0A,7C,00,00,00,00,00,00,
11703471,1081827E,true,Rx,0,8,2F,78,00,00,00,00,00,00,
11704008,108182FE,true,Tx,0,8,0B,7C,00,00,00,00,00,00,
11705340,108182FE,true,Tx,0,8,0C,7C,00,00,00,00,00,00,
11705820,1081827E,true,Rx,0,8,20,79,00,00,00,00,00,00,
11707084,108182FE,true,Tx,0,8,0D,7C,00,00,00,00,00,00,
11708126,1081827E,true,Rx,0,8,21,79,00,00,00,00,00,00,
11708743,108182FE,true,Tx,0,8,0E,7C,00,00,00,00,00,00,
11710037,108182FE,true,Tx,0,8,0F,7C,00,00,00,00,00,00,
11710425,1081827E,true,Rx,0,8,22,79,00,00,00,00,00,00,
11711253,108182FE,true,Tx,0,8,00,7D,00,00,00,00,00,00,
11712750,1081827E,true,Rx,0,8,23,79,00,00,00,00,00,00,
11712640,108182FE,true,Tx,0,8,01,7D,00,00,00,00,00,00,
11713969,108182FE,true,Tx,0,8,02,7D,00,00,00,00,00,00,
11715041,1081827E,true,Rx,0,8,24,79,00,00,00,00,00,00,
11715289,108182FE,true,Tx,0,8,03,7D,00,00,00,00,00,00,
11716591,108182FE,true,Tx,0,8,04,7D,00,00,00,00,00,00,
11717372,1081827E,true,Rx,0,8,25,79,00,00,00,00,00,00,
11717899,108182FE,true,Tx,0,8,05,7D,00,00,00,00,00,00,
11719180,108182FE,true,Tx,0,8,06,7D,00,00,00,00,00,00,
11719720,1081827E,true,Rx,0,8,26,79,00,00,00,00,00,00,
11720465,108182FE,true,Tx,0,8,07,7D,00,00,00,00,00,00,
11721984,1081827E,true,Rx,0,8,27,79,00,00,00,00,00,00,
11721869,108182FE,true,Tx,0,8,08,7D,00,00,00,00,00,00,
11723897,108182FE,true,Tx,0,8,09,7D,00,00,00,00,00,00,
11724306,1081827E,true,Rx,0,8,28,79,00,00,00,00,00,00,
11725409,108182FE,true,Tx,0,8,0A,7D,00,00,00,00,00,00,
11726589,1081827E,true,Rx,0,8,29,79,00,00,00,00,00,00,
11726972,108182FE,true,Tx,0,8,0B,7D,00,00,00,00,00,00,
11728185,108182FE,true,Tx,0,8,0C,7D,00,00,00,00,00,00,
11728914,1081827E,true,Rx,0,8,2A,79,00,00,00,00,00,00,
11729481,108182FE,true,Tx,0,8,0D,7D,00,00,00,00,00,00,
11730840,108182FE,true,Tx,0,8,0E,7D,00,00,00,00,00,00,
11731221,1081827E,true,Rx,0,8,2B,79,00,00,00,00,00,00,
11732037,108182FE,true,Tx,0,8,0F,7D,00,00,00,00,00,00,
11733196,108182FE,true,Tx,0,8,00,7E,00,00,00,00,00,00,
11733548,1081827E,true,Rx,0,8,2C,79,00,00,00,00,00,00,
11734364,108182FE,true,Tx,0,8,01,7E,00,00,00,00,00,00,
11734720,1081827E,true,Rx,0,8,2D,79,00,00,00,00,00,00,
11735581,108182FE,true,Tx,0,8,02,7E,00,00,00,00,00,00,
11736805,108182FE,true,Tx,0,8,03,7E,00,00,00,00,00,00,
11738168,1081827E,true,Rx,0,8,2E,79,00,00,00,00,00,00,
11738041,108182FE,true,Tx,0,8,04,7E,00,00,00,00,00,00,
11739491,108182FE,true,Tx,0,8,05,7E,00,00,00,00,00,00,
11740496,1081827E,true,Rx,0,8,2F,79,00,00,00,00,00,00,
11741196,108182FE,true,Tx,0,8,06,7E,00,00,00,00,00,00,
11742820,1081827E,true,Rx,0,8,20,7A,00,00,00,00,00,00,
11742782,108182FE,true,Tx,0,8,07,7E,00,00,00,00,00,00,
11743979,108182FE,true,Tx,0,8,08,7E,00,00,00,00,00,00,
11745146,1081827E,true,Rx,0,8,21,7A,00,00,00,00,00,00,
11745126,108182FE,true,Tx,0,8,09,7E,00,00,00,00,00,00,
11746351,108182FE,true,Tx,0,8,0A,7E,00,00,00,00,00,00,
11747461,1081827E,true,Rx,0,8,22,7A,00,00,00,00,00,00,
11747548,108182FE,true,Tx,0,8,0B,7E,00,00,00,00,00,00,
11748746,108182FE,true,Tx,0,8,0C,7E,00,00,00,00,00,00,
11749795,1081827E,true,Rx,0,8,23,7A,00,00,00,00,00,00,
11749896,108182FE,true,Tx,0,8,0D,7E,00,00,00,00,00,00,
11751053,108182FE,true,Tx,0,8,0E,7E,00,00,00,00,00,00,
11752105,1081827E,true,Rx,0,8,24,7A,00,00,00,00,00,00,
11752164,108182FE,true,Tx,0,8,0F,7E,00,00,00,00,00,00,
11753303,108182FE,true,Tx,0,8,00,7F,00,00,00,00,00,00,
11754417,1081827E,true,Rx,0,8,25,7A,00,00,00,00,00,00,
11754427,108182FE,true,Tx,0,8,01,7F,00,00,00,00,00,00,
11755844,108182FE,true,Tx,0,8,02,7F,00,00,00,00,00,00,
11756726,1081827E,true,Rx,0,8,26,7A,00,00,00,00,00,00,
11757513,108182FE,true,Tx,0,8,03,7F,00,00,00,00,00,00,
11759034,1081827E,true,Rx,0,8,27,7A,00,00,00,00,00,00,
11759073,108182FE,true,Tx,0,8,04,7F,00,00,00,00,00,00,
11760429,108182FE,true,Tx,0,8,05,7F,00,00,00,00,00,00,
11761351,1081827E,true,Rx,0,8,28,7A,00,00,00,00,00,00,
11761648,108182FE,true,Tx,0,8,06,7F,00,00,00,00,00,00,
11762859,108182FE,true,Tx,0,8,07,7F,00,00,00,00,00,00,
11763720,1081827E,true,Rx,0,8,29,7A,00,00,00,00,00,00,
11764277,108182FE,true,Tx,0,8,08,7F,00,00,00,00,00,00,
11765504,108182FE,true,Tx,0,8,09,7F,00,00,00,00,00,00,
11765994,1081827E,true,Rx,0,8,2A,7A,00,00,00,00,00,00,
11766739,108182FE,true,Tx,0,8,0A,7F,00,00,00,00,00,00,
11767901,108182FE,true,Tx,0,8,0B,7F,00,00,00,00,00,00,
11768316,1081827E,true,Rx,0,8,2B,7A,00,00,00,00,00,00,
11769140,108182FE,true,Tx,0,8,0C,7F,00,00,00,00,00,00,
11770351,108182FE,true,Tx,0,8,0D,7F,00,00,00,00,00,00,
11770717,1081827E,true,Rx,0,8,2C,7A,00,00,00,00,00,00,
11771510,108182FE,true,Tx,0,8,0E,7F,00,00,00,00,00,00,
11772963,1081827E,true,Rx,0,8,2D,7A,00,00,00,00,00,00,
11772881,108182FE,true,Tx,0,8,0F,7F,00,00,00,00,00,00,
11774449,108182FE,true,Tx,0,8,00,80,00,00,00,00,00,00,
11775275,1081827E,true,Rx,0,8,2E,7A,00,00,00,00,00,00,
11775761,108182FE,true,Tx,0,8,01,80,00,00,00,00,00,00,
11776936,108182FE,true,Tx,0,8,02,80,00,00,00,00,00,00,
11777609,1081827E,true,Rx,0,8,2F,7A,00,00,00,00,00,00,
11778370,108182FE,true,Tx,0,8,03,80,00,00,00,00,00,00,
11779588,108182FE,true,Tx,0,8,04,80,00,00,00,00,00,00,
11779961,1081827E,true,Rx,0,8,20,7B,00,00,00,00,00,00,
11780814,108182FE,true,Tx,0,8,05,80,00,00,00,00,00,00,
11782254,1081827E,true,Rx,0,8,21,7B,00,00,00,00,00,00,
11781992,108182FE,true,Tx,0,8,06,80,00,00,00,00,00,00,
11783116,108182FE,true,Tx,0,8,07,80,00,00,00,00,00,00,
11784239,108182FE,true,Tx,0,8,08,80,00,00,00,00,00,00,
11784592,1081827E,true,Rx,0,8,22,7B,00,00,00,00,00,00,
11785370,108182FE,true,Tx,0,8,09,80,00,00,00,00,00,00,
11786518,108182FE,true,Tx,0,8,0A,80,00,00,00,00,00,00,
11786897,1081827E,true,Rx,0,8,23,7B,00,00,00,00,00,00,
11787656,108182FE,true,Tx,0,8,0B,80,00,00,00,00,00,00,
11789225,1081827E,true,Rx,0,8,24,7B,00,00,00,00,00,00,
11789009,108182FE,true,Tx,0,8,0C,80,00,00,00,00,00,00,
11790570,108182FE,true,Tx,0,8,0D,80,00,00,00,00,00,00,
11791523,1081827E,true,Rx,0,8,25,7B,00,00,00,00,00,00,
11791787,108182FE,true,Tx,0,8,0E,80,00,00,00,00,00,00,
11793312,108182FE,true,Tx,0,8,0F,80,00,00,00,00,00,00,
11793838,1081827E,true,Rx,0,8,26,7B,00,00,00,00,00,00,
11794414,108182FE,true,Tx,0,8,00,81,00,00,00,00,00,00,
11795598,108182FE,true,Tx,0,8,01,81,00,00,00,00,00,00,
11796191,1081827E,true,Rx,0,8,27,7B,00,00,00,00,00,00,
11796700,108182FE,true,Tx,0,8,02,81,00,00,00,00,00,00,
11797853,108182FE,true,Tx,0,8,03,81,00,00,00,00,00,00,
11798482,1081827E,true,Rx,0,8,28,7B,00,00,00,00,00,00,
11798944,108182FE,true,Tx,0,8,04,81,00,00,00,00,00,00,
11800076,108182FE,true,Tx,0,8,05,81,00,00,00,00,00,00,
11800779,1081827E,true,Rx,0,8,29,7B,00,00,00,00,00,00,
11801149,108182FE,true,Tx,0,8,06,81,00,00,00,00,00,00,
11802313,108182FE,true,Tx,0,8,07,81,00,00,00,00,00,00,
11803090,1081827E,true,Rx,0,8,2A,7B,00,00,00,00,00,00,
11803465,108182FE,true,Tx,0,8,08,81,00,00,00,00,00,00,
11804587,108182FE,true,Tx,0,8,09,81,00,00,00,00,00,00,
11805401,1081827E,true,Rx,0,8,2B,7B,00,00,00,00,00,00,
11806020,108182FE,true,Tx,0,8,0A,81,00,00,00,00,00,00,
11807726,1081827E,true,Rx,0,8,2C,7B,00,00,00,00,00,00,
11807508,108182FE,true,Tx,0,8,0B,81,00,00,00,00,00,00,
11808721,108182FE,true,Tx,0,8,0C,81,00,00,00,00,00,00,
11810045,1081827E,true,Rx,0,8,2D,7B,00,00,00,00,00,00,
11809838,108182FE,true,Tx,0,8,0D,81,00,00,00,00,00,00,
11810996,108182FE,true,Tx,0,8,0E,81,00,00,00,00,00,00,
11812361,1081827E,true,Rx,0,8,2E,7B,00,00,00,00,00,00,
11812107,108182FE,true,Tx,0,8,0F,81,00,00,00,00,00,00,
11813256,108182FE,true,Tx,0,8,00,82,00,00,00,00,00,00,
11814368,108182FE,true,Tx,0,8,01,82,00,00,00,00,00,00,
11814721,1081827E,true,Rx,0,8,2F,7B,00,00,00,00,00,00,
11815531,108182FE,true,Tx,0,8,02,82,00,00,00,00,00,00,
11816611,108182FE,true,Tx,0,8,03,82,00,00,00,00,00,00,
11817094,1081827E,true,Rx,0,8,20,7C,00,00,00,00,00,00,
11817741,108182FE,true,Tx,0,8,04,82,00,00,00,00,00,00,
11818821,108182FE,true,Tx,0,8,05,82,00,00,00,00,00,00,
11819418,1081827E,true,Rx,0,8,01,7C,00,00,00,06,16,E0,
11819937,108182FE,true,Tx,0,8,06,82,00,00,00,00,00,00,
11821017,108182FE,true,Tx,0,8,07,82,00,00,00,00,00,00,
11821736,1081827E,true,Rx,0,8,22,7C,00,00,00,00,00,00,
11822510,108182FE,true,Tx,0,8,08,82,00,00,00,00,00,00,
11824057,1081827E,true,Rx,0,8,23,7C,00,00,00,00,00,00,
11823965,108182FE,true,Tx,0,8,09,82,00,00,00,00,00,00,
11825416,108182FE,true,Tx,0,8,0A,82,00,00,00,00,00,00,
11826810,108182FE,true,Tx,0,8,0B,82,00,00,00,00,00,00,
11827586,1081827E,true,Rx,0,8,24,7C,00,00,00,00,00,00,
11827981,108182FE,true,Tx,0,8,0C,82,00,00,00,00,00,00,
11829176,108182FE,true,Tx,0,8,0D,82,00,00,00,00,00,00,
11829891,1081827E,true,Rx,0,8,25,7C,00,00,00,00,00,00,
11830334,108182FE,true,Tx,0,8,0E,82,00,00,00,00,00,00,
11831497,108182FE,true,Tx,0,8,0F,82,00,00,00,00,00,00,
11832607,108182FE,true,Tx,0,8,00,83,00,00,00,00,00,00,
11833410,1081827E,true,Rx,0,8,26,7C,00,00,00,00,00,00,
11833411,1081827E,true,Rx,0,8,27,7C,00,00,00,00,00,00,
11833755,108182FE,true,Tx,0,8,01,83,00,00,00,00,00,00,
11834886,108182FE,true,Tx,0,8,02,83,00,00,00,00,00,00,
11836001,108182FE,true,Tx,0,8,03,83,00,00,00,00,00,00,
11836889,1081827E,true,Rx,0,8,28,7C,00,00,00,00,00,00,
11837150,108182FE,true,Tx,0,8,04,83,00,00,00,00,00,00,
11838307,108182FE,true,Tx,0,8,05,83,00,00,00,00,00,00,
11839288,1081827E,true,Rx,0,8,29,7C,00,00,00,00,00,00,
11839795,108182FE,true,Tx,0,8,06,83,00,00,00,00,00,00,
11841629,1081827E,true,Rx,0,8,2A,7C,00,00,00,00,00,00,
11841349,108182FE,true,Tx,0,8,07,83,00,00,00,00,00,00,
11842513,108182FE,true,Tx,0,8,08,83,00,00,00,00,00,00,
11843719,108182FE,true,Tx,0,8,09,83,00,00,00,00,00,00,
11845127,1081827E,true,Rx,0,8,2B,7C,00,00,00,00,00,00,
11845128,1081827E,true,Rx,0,8,2C,7C,00,00,00,00,00,00,
11844901,108182FE,true,Tx,0,8,0A,83,00,00,00,00,00,00,
11846247,108182FE,true,Tx,0,8,0B,83,00,00,00,00,00,00,
11848723,1081827E,true,Rx,0,8,2D,7C,00,00,00,00,00,00,
11848479,108182FE,true,Tx,0,8,0C,83,00,00,00,00,00,00,
11851011,1081827E,true,Rx,0,8,2E,7C,00,00,00,00,00,00,
11850771,108182FE,true,Tx,0,8,0D,83,00,00,00,00,00,00,
11853045,108182FE,true,Tx,0,8,0E,83,00,00,00,00,00,00,
11853354,1081827E,true,Rx,0,8,2F,7C,00,00,00,00,00,00,
11854302,108182FE,true,Tx,0,8,0F,83,00,00,00,00,00,00,
11855773,1081827E,true,Rx,0,8,20,7D,00,00,00,00,00,00,
11855674,108182FE,true,Tx,0,8,00,84,00,00,00,00,00,00,
11856874,108182FE,true,Tx,0,8,01,84,00,00,00,00,00,00,
11858007,1081827E,true,Rx,0,8,21,7D,00,00,00,00,00,00,
11858100,108182FE,true,Tx,0,8,02,84,00,00,00,00,00,00,
11859230,108182FE,true,Tx,0,8,03,84,00,00,00,00,00,00,
11860354,1081827E,true,Rx,0,8,22,7D,00,00,00,00,00,00,
11860449,108182FE,true,Tx,0,8,04,84,00,00,00,00,00,00,
11861587,108182FE,true,Tx,0,8,05,84,00,00,00,00,00,00,
11862722,1081827E,true,Rx,0,8,23,7D,00,00,00,00,00,00,
11862759,108182FE,true,Tx,0,8,06,84,00,00,00,00,00,00,
11863884,108182FE,true,Tx,0,8,07,84,00,00,00,00,00,00,
11865002,1081827E,true,Rx,0,8,24,7D,00,00,00,00,00,00,
11865124,108182FE,true,Tx,0,8,08,84,00,00,00,00,00,00,
11866238,108182FE,true,Tx,0,8,09,84,00,00,00,00,00,00,
11867354,1081827E,true,Rx,0,8,25,7D,00,00,00,00,00,00,
11867421,108182FE,true,Tx,0,8,0A,84,00,00,00,00,00,00,
11868535,108182FE,true,Tx,0,8,0B,84,00,00,00,00,00,00,
11869723,1081827E,true,Rx,0,8,26,7D,00,00,00,00,00,00,
11869762,108182FE,true,Tx,0,8,0C,84,00,00,00,00,00,00,
11870890,108182FE,true,Tx,0,8,0D,84,00,00,00,00,00,00,
11872010,1081827E,true,Rx,0,8,27,7D,00,00,00,00,00,00,
11872148,108182FE,true,Tx,0,8,0E,84,00,00,00,00,00,00,
11873655,108182FE,true,Tx,0,8,0F,84,00,00,00,00,00,00,
11874347,1081827E,true,Rx,0,8,28,7D,00,00,00,00,00,00,
11875345,108182FE,true,Tx,0,8,00,85,00,00,00,00,00,00,
11876721,1081827E,true,Rx,0,8,29,7D,00,00,00,00,00,00,
11877265,108182FE,true,Tx,0,8,01,85,00,00,00,00,00,00,
11878460,108182FE,true,Tx,0,8,02,85,00,00,00,00,00,00,
11878945,1081827E,true,Rx,0,8,2A,7D,00,00,00,00,00,00,
11879678,108182FE,true,Tx,0,8,03,85,00,00,00,00,00,00,
11880897,108182FE,true,Tx,0,8,04,85,00,00,00,00,00,00,
11881284,1081827E,true,Rx,0,8,2B,7D,00,00,00,00,00,00,
11882138,108182FE,true,Tx,0,8,05,85,00,00,00,00,00,00,
11883265,108182FE,true,Tx,0,8,06,85,00,00,00,00,00,00,
11883723,1081827E,true,Rx,0,8,2C,7D,00,00,00,00,00,00,
11884406,108182FE,true,Tx,0,8,07,85,00,00,00,00,00,00,
11885543,108182FE,true,Tx,0,8,08,85,00,00,00,00,00,00,
11885949,1081827E,true,Rx,0,8,2D,7D,00,00,00,00,00,00,
11886768,108182FE,true,Tx,0,8,09,85,00,00,00,00,00,00,
11887875,108182FE,true,Tx,0,8,0A,85,00,00,00,00,00,00,
11888296,1081827E,true,Rx,0,8,2E,7D,00,00,00,00,00,00,
11889117,108182FE,true,Tx,0,8,0B,85,00,00,00,00,00,00,
11890727,1081827E,true,Rx,0,8,2F,7D,00,00,00,00,00,00,
11893003,1081827E,true,Rx,0,8,20,7E,00,00,00,00,00,00,
11895350,1081827E,true,Rx,0,8,01,7E,00,00,00,00,58,00,
11897722,1081827E,true,Rx,0,8,22,7E,00,00,00,00,00,00,
11900005,1081827E,true,Rx,0,8,23,7E,00,00,00,00,00,00,
11902293,1081827E,true,Rx,0,8,24,7E,00,00,00,00,00,00,
11902798,108182FE,true,Tx,0,8,0C,85,00,00,00,00,00,00,
11904728,1081827E,true,Rx,0,8,25,7E,00,00,00,00,00,00,
11907029,1081827E,true,Rx,0,8,26,7E,00,00,00,00,00,00,
11911717,1081827E,true,Rx,0,8,27,7E,00,00,00,00,00,00,
11911718,1001117E,true,Rx,0,8,00,01,00,00,00,00,00,00,
11911719,1081827E,true,Rx,0,8,28,7E,00,00,00,00,00,00,
11915182,1081827E,true,Rx,0,8,29,7E,00,00,00,00,00,00,
11917468,1081827E,true,Rx,0,8,2A,7E,00,00,00,00,00,00,
11918329,108182FE,true,Tx,0,8,0D,85,00,00,00,00,00,00,
11919833,1081827E,true,Rx,0,8,2B,7E,00,00,00,00,00,00,
11919815,108182FE,true,Tx,0,8,0E,85,00,00,00,00,00,00,
11921053,108182FE,true,Tx,0,8,0F,85,00,00,00,00,00,00,
11922191,1081827E,true,Rx,0,8,2C,7E,00,00,00,00,00,00,
11922335,108182FE,true,Tx,0,8,00,86,00,00,00,00,00,00,
11924003,108182FE,true,Tx,0,8,01,86,00,00,00,00,00,00,
11924529,1081827E,true,Rx,0,8,2D,7E,00,00,00,00,00,00,
11925795,108182FE,true,Tx,0,8,02,86,00,00,00,00,00,00,
11926823,1081827E,true,Rx,0,8,2E,7E,00,00,00,00,00,00,
11927634,108182FE,true,Tx,0,8,03,86,00,00,00,00,00,00,
11928881,108182FE,true,Tx,0,8,04,86,00,00,00,00,00,00,
11929178,1081827E,true,Rx,0,8,2F,7E,00,00,00,00,00,00,
11930099,108182FE,true,Tx,0,8,05,86,00,00,00,00,00,00,
11931522,1081827E,true,Rx,0,8,20,7F,00,00,00,00,00,00,
11931312,108182FE,true,Tx,0,8,06,86,00,00,00,00,00,00,
11932518,108182FE,true,Tx,0,8,07,86,00,00,00,00,00,00,
11933837,1081827E,true,Rx,0,8,01,7F,00,00,00,00,74,00,
11933680,108182FE,true,Tx,0,8,08,86,00,00,00,00,00,00,
11934855,108182FE,true,Tx,0,8,09,86,00,00,00,00,00,00,
11936176,1081827E,true,Rx,0,8,22,7F,00,00,00,00,00,00,
11936178,108182FE,true,Tx,0,8,0A,86,00,00,00,00,00,00,
11937731,108182FE,true,Tx,0,8,0B,86,00,00,00,00,00,00,
11938526,1081827E,true,Rx,0,8,23,7F,00,00,00,00,00,00,
11938981,108182FE,true,Tx,0,8,0C,86,00,00,00,00,00,00,
11940828,1081827E,true,Rx,0,8,24,7F,00,00,00,00,00,00,
11940556,108182FE,true,Tx,0,8,0D,86,00,00,00,00,00,00,
11942014,108182FE,true,Tx,0,8,0E,86,00,00,00,00,00,00,
11943177,1081827E,true,Rx,0,8,25,7F,00,00,00,00,00,00,
11943272,108182FE,true,Tx,0,8,0F,86,00,00,00,00,00,00,
11944564,108182FE,true,Tx,0,8,00,87,00,00,00,00,00,00,
11945469,1081827E,true,Rx,0,8,26,7F,00,00,00,00,00,00,
11945697,108182FE,true,Tx,0,8,01,87,00,00,00,00,00,00,
11946836,108182FE,true,Tx,0,8,02,87,00,00,00,00,00,00,
11947831,1081827E,true,Rx,0,8,27,7F,00,00,00,00,00,00,
11948025,108182FE,true,Tx,0,8,03,87,00,00,00,00,00,00,
11949160,108182FE,true,Tx,0,8,04,87,00,00,00,00,00,00,
11950179,1081827E,true,Rx,0,8,28,7F,00,00,00,00,00,00,
11950283,108182FE,true,Tx,0,8,05,87,00,00,00,00,00,00,
11951412,108182FE,true,Tx,0,8,06,87,00,00,00,00,00,00,
11952472,1081827E,true,Rx,0,8,29,7F,00,00,00,00,00,00,
11952583,108182FE,true,Tx,0,8,07,87,00,00,00,00,00,00,
11953718,108182FE,true,Tx,0,8,08,87,00,00,00,00,00,00,
11954832,108182FE,true,Tx,0,8,09,87,00,00,00,00,00,00,
11955968,1081827E,true,Rx,0,8,2A,7F,00,00,00,00,00,00,
11955970,1081827E,true,Rx,0,8,2B,7F,00,00,00,00,00,00,
11956315,108182FE,true,Tx,0,8,0A,87,00,00,00,00,00,00,
11957908,108182FE,true,Tx,0,8,0B,87,00,00,00,00,00,00,
11959452,1081827E,true,Rx,0,8,2C,7F,00,00,00,00,00,00,
11959272,108182FE,true,Tx,0,8,0C,87,00,00,00,00,00,00,
11960587,108182FE,true,Tx,0,8,0D,87,00,00,00,00,00,00,
11961833,1081827E,true,Rx,0,8,2D,7F,00,00,00,00,00,00,
11961940,108182FE,true,Tx,0,8,0E,87,00,00,00,00,00,00,
11963283,108182FE,true,Tx,0,8,0F,87,00,00,00,00,00,00,
11964120,1081827E,true,Rx,0,8,2E,7F,00,00,00,00,00,00,
11964657,108182FE,true,Tx,0,8,00,88,00,00,00,00,00,00,
11965906,108182FE,true,Tx,0,8,01,88,00,00,00,00,00,00,
11966525,1081827E,true,Rx,0,8,2F,7F,00,00,00,00,00,00,
11967173,108182FE,true,Tx,0,8,02,88,00,00,00,00,00,00,
11968420,108182FE,true,Tx,0,8,03,88,00,00,00,00,00,00,
11968833,1081827E,true,Rx,0,8,20,80,00,00,00,00,00,00,
11969687,108182FE,true,Tx,0,8,04,88,00,00,00,00,00,00,
11971183,1081827E,true,Rx,0,8,01,80,00,00,00,00,58,00,
11970891,108182FE,true,Tx,0,8,05,88,00,00,00,00,00,00,
11972075,108182FE,true,Tx,0,8,06,88,00,00,00,00,00,00,
11973605,108182FE,true,Tx,0,8,07,88,00,00,00,00,00,00,
11974778,1081827E,true,Rx,0,8,22,80,00,00,00,00,00,00,
11974779,1081827E,true,Rx,0,8,23,80,00,00,00,00,00,00,
11975180,108182FE,true,Tx,0,8,08,88,00,00,00,00,00,00,
11976519,108182FE,true,Tx,0,8,09,88,00,00,00,00,00,00,
11977888,108182FE,true,Tx,0,8,0A,88,00,00,00,00,00,00,
11978232,1081827E,true,Rx,0,8,24,80,00,00,00,00,00,00,
11978998,108182FE,true,Tx,0,8,0B,88,00,00,00,00,00,00,
11980188,108182FE,true,Tx,0,8,0C,88,00,00,00,00,00,00,
11980577,1081827E,true,Rx,0,8,25,80,00,00,00,00,00,00,
11981368,108182FE,true,Tx,0,8,0D,88,00,00,00,00,00,00,
11982895,1081827E,true,Rx,0,8,26,80,00,00,00,00,00,00,
11982586,108182FE,true,Tx,0,8,0E,88,00,00,00,00,00,00,
11983707,108182FE,true,Tx,0,8,0F,88,00,00,00,00,00,00,
11985237,1081827E,true,Rx,0,8,27,80,00,00,00,00,00,00,
11984929,108182FE,true,Tx,0,8,00,89,00,00,00,00,00,00,
11986067,108182FE,true,Tx,0,8,01,89,00,00,00,00,00,00,
11987260,108182FE,true,Tx,0,8,02,89,00,00,00,00,00,00,
11987583,1081827E,true,Rx,0,8,28,80,00,00,00,00,00,00,
11988351,108182FE,true,Tx,0,8,03,89,00,00,00,00,00,00,
11989970,1081827E,true,Rx,0,8,29,80,00,00,00,00,00,00,
11989816,108182FE,true,Tx,0,8,04,89,00,00,00,00,00,00,
11991304,108182FE,true,Tx,0,8,05,89,00,00,00,00,00,00,
11992279,1081827E,true,Rx,0,8,2A,80,00,00,00,00,00,00,
11992542,108182FE,true,Tx,0,8,06,89,00,00,00,00,00,00,
11993688,108182FE,true,Tx,0,8,07,89,00,00,00,00,00,00,
11994721,1081827E,true,Rx,0,8,2B,80,00,00,00,00,00,00,
11994842,108182FE,true,Tx,0,8,08,89,00,00,00,00,00,00,
11995949,108182FE,true,Tx,0,8,09,89,00,00,00,00,00,00,
11996956,1081827E,true,Rx,0,8,2C,80,00,00,00,00,00,00,
11997124,108182FE,true,Tx,0,8,0A,89,00,00,00,00,00,00,
11998257,108182FE,true,Tx,0,8,0B,89,00,00,00,00,00,00,
11999292,1081827E,true,Rx,0,8,2D,80,00,00,00,00,00,00,
11999437,108182FE,true,Tx,0,8,0C,89,00,00,00,00,00,00,
12000562,108182FE,true,Tx,0,8,0D,89,00,00,00,00,00,00,
12001723,1081827E,true,Rx,0,8,2E,80,00,00,00,00,00,00,
12001729,108182FE,true,Tx,0,8,0E,89,00,00,00,00,00,00,
12002842,108182FE,true,Tx,0,8,0F,89,00,00,00,00,00,00,
12004003,1081827E,true,Rx,0,8,2F,80,00,00,00,00,00,00,
12004003,108182FE,true,Tx,0,8,00,8A,00,00,00,00,00,00,
12005168,108182FE,true,Tx,0,8,01,8A,00,00,00,00,00,00,
12006351,1081827E,true,Rx,0,8,20,81,00,00,00,00,00,00,
12006369,108182FE,true,Tx,0,8,02,8A,00,00,00,00,00,00,
12008356,108182FE,true,Tx,0,8,03,8A,00,00,00,00,00,00,
12009882,1081827E,true,Rx,0,8,01,81,00,00,00,00,00,00,
12009882,1081827E,true,Rx,0,8,22,81,00,00,00,00,00,00,
12009658,108182FE,true,Tx,0,8,04,8A,00,00,00,00,00,00,
12011133,108182FE,true,Tx,0,8,05,8A,00,00,00,00,00,00,
12012265,108182FE,true,Tx,0,8,06,8A,00,00,00,00,00,00,
12013354,1081827E,true,Rx,0,8,23,81,00,00,00,00,00,00,
12013443,108182FE,true,Tx,0,8,07,8A,00,00,00,00,00,00,
12014639,108182FE,true,Tx,0,8,08,8A,00,00,00,00,00,00,
12015761,1081827E,true,Rx,0,8,24,81,00,00,00,00,00,00,
12015866,108182FE,true,Tx,0,8,09,8A,00,00,00,00,00,00,
12017001,108182FE,true,Tx,0,8,0A,8A,00,00,00,00,00,00,
12018011,1081827E,true,Rx,0,8,25,81,00,00,00,00,00,00,
12018183,108182FE,true,Tx,0,8,0B,8A,00,00,00,00,00,00,
12019318,108182FE,true,Tx,0,8,0C,8A,00,00,00,00,00,00,
12020356,1081827E,true,Rx,0,8,26,81,00,00,00,00,00,00,
12020500,108182FE,true,Tx,0,8,0D,8A,00,00,00,00,00,00,
12021645,108182FE,true,Tx,0,8,0E,8A,00,00,00,00,00,00,
12022725,1081827E,true,Rx,0,8,27,81,00,00,00,00,00,00,
12022882,108182FE,true,Tx,0,8,0F,8A,00,00,00,00,00,00,
12024231,108182FE,true,Tx,0,8,00,8B,00,00,00,00,00,00,
12024999,1081827E,true,Rx,0,8,28,81,00,00,00,00,00,00,
12025471,108182FE,true,Tx,0,8,01,8B,00,00,00,00,00,00,
12026583,108182FE,true,Tx,0,8,02,8B,00,00,00,00,00,00,
12027289,1081827E,true,Rx,0,8,29,81,00,00,00,00,00,00,
12027789,108182FE,true,Tx,0,8,03,8B,00,00,00,00,00,00,
12028965,108182FE,true,Tx,0,8,04,8B,00,00,00,00,00,00,
12029723,1081827E,true,Rx,0,8,2A,81,00,00,00,00,00,00,
12030323,108182FE,true,Tx,0,8,05,8B,00,00,00,00,00,00,
12031541,108182FE,true,Tx,0,8,06,8B,00,00,00,00,00,00,
12032010,1081827E,true,Rx,0,8,2B,81,00,00,00,00,00,00,
12032785,108182FE,true,Tx,0,8,07,8B,00,00,00,00,00,00,
12033944,108182FE,true,Tx,0,8,08,8B,00,00,00,00,00,00,
12034356,1081827E,true,Rx,0,8,2C,81,00,00,00,00,00,00,
12035130,108182FE,true,Tx,0,8,09,8B,00,00,00,00,00,00,
12036725,1081827E,true,Rx,0,8,2D,81,00,00,00,00,00,00,
12036499,108182FE,true,Tx,0,8,0A,8B,00,00,00,00,00,00,
12037773,108182FE,true,Tx,0,8,0B,8B,00,00,00,00,00,00,
12039010,1081827E,true,Rx,0,8,2E,81,00,00,00,00,00,00,
12039035,108182FE,true,Tx,0,8,0C,8B,00,00,00,00,00,00,
12040611,108182FE,true,Tx,0,8,0D,8B,00,00,00,00,00,00,
12042098,108182FE,true,Tx,0,8,0E,8B,00,00,00,00,00,00,
12042572,1081827E,true,Rx,0,8,2F,81,00,00,00,00,00,00,
12042573,1081827E,true,Rx,0,8,20,82,00,00,00,00,00,00,
12043404,108182FE,true,Tx,0,8,0F,8B,00,00,00,00,00,00,
12044828,108182FE,true,Tx,0,8,00,8C,00,00,00,00,00,00,
12045977,108182FE,true,Tx,0,8,01,8C,00,00,00,00,00,00,
12047240,1081827E,true,Rx,0,8,01,82,00,00,00,00,00,00,
12047240,1081827E,true,Rx,0,8,22,82,00,00,00,00,00,00,
12047181,108182FE,true,Tx,0,8,02,8C,00,00,00,00,00,00,
12048314,108182FE,true,Tx,0,8,03,8C,00,00,00,00,00,00,
12049474,108182FE,true,Tx,0,8,04,8C,00,00,00,00,00,00,
12050724,1081827E,true,Rx,0,8,23,82,00,00,00,00,00,00,
12050613,108182FE,true,Tx,0,8,05,8C,00,00,00,00,00,00,
12051750,108182FE,true,Tx,0,8,06,8C,00,00,00,00,00,00,
12052861,108182FE,true,Tx,0,8,07,8C,00,00,00,00,00,00,
12054245,1081827E,true,Rx,0,8,24,82,00,00,00,00,00,00,
12054245,1081827E,true,Rx,0,8,25,82,00,00,00,00,00,00,
12054070,108182FE,true,Tx,0,8,08,8C,00,00,00,00,00,00,
12055180,108182FE,true,Tx,0,8,09,8C,00,00,00,00,00,00,
12056746,108182FE,true,Tx,0,8,0A,8C,00,00,00,00,00,00,
12057767,1081827E,true,Rx,0,8,26,82,00,00,00,00,00,00,
12058311,108182FE,true,Tx,0,8,0B,8C,00,00,00,00,00,00,
12059504,108182FE,true,Tx,0,8,0C,8C,00,00,00,00,00,00,
12060061,1081827E,true,Rx,0,8,27,82,00,00,00,00,00,00,
12060787,108182FE,true,Tx,0,8,0D,8C,00,00,00,00,00,00,
12061981,108182FE,true,Tx,0,8,0E,8C,00,00,00,00,00,00,
12062411,1081827E,true,Rx,0,8,28,82,00,00,00,00,00,00,
12063166,108182FE,true,Tx,0,8,0F,8C,00,00,00,00,00,00,
12064398,108182FE,true,Tx,0,8,00,8D,00,00,00,00,00,00,
12064768,1081827E,true,Rx,0,8,29,82,00,00,00,00,00,00,
12065583,108182FE,true,Tx,0,8,01,8D,00,00,00,00,00,00,
12067071,1081827E,true,Rx,0,8,2A,82,00,00,00,00,00,00,
12066776,108182FE,true,Tx,0,8,02,8D,00,00,00,00,00,00,
12068058,108182FE,true,Tx,0,8,03,8D,00,00,00,00,00,00,
12069415,1081827E,true,Rx,0,8,2B,82,00,00,00,00,00,00,
12069214,108182FE,true,Tx,0,8,04,8D,00,00,00,00,00,00,
12070383,108182FE,true,Tx,0,8,05,8D,00,00,00,00,00,00,
12071767,1081827E,true,Rx,0,8,2C,82,00,00,00,00,00,00,
12071580,108182FE,true,Tx,0,8,06,8D,00,00,00,00,00,00,
12072745,108182FE,true,Tx,0,8,07,8D,00,00,00,00,00,00,
12074124,1081827E,true,Rx,0,8,2D,82,00,00,00,00,00,00,
12074388,108182FE,true,Tx,0,8,08,8D,00,00,00,00,00,00,
12075673,108182FE,true,Tx,0,8,09,8D,00,00,00,00,00,00,
12076462,1081827E,true,Rx,0,8,2E,82,00,00,00,00,00,00,
12077269,108182FE,true,Tx,0,8,0A,8D,00,00,00,00,00,00,
12078831,1081827E,true,Rx,0,8,2F,82,00,00,00,00,00,00,
12078564,108182FE,true,Tx,0,8,0B,8D,00,00,00,00,00,00,
12079740,108182FE,true,Tx,0,8,0C,8D,00,00,00,00,00,00,
12081118,1081827E,true,Rx,0,8,20,83,00,00,00,00,00,00,
12081068,108182FE,true,Tx,0,8,0D,8D,00,00,00,00,00,00,
12082289,108182FE,true,Tx,0,8,0E,8D,00,00,00,00,00,00,
12083472,1081827E,true,Rx,0,8,01,83,00,00,00,00,00,00,
12083554,108182FE,true,Tx,0,8,0F,8D,00,00,00,00,00,00,
12084778,108182FE,true,Tx,0,8,00,8E,00,00,00,00,00,00,
12085833,1081827E,true,Rx,0,8,22,83,00,00,00,00,00,00,
12086076,108182FE,true,Tx,0,8,01,8E,00,00,00,00,00,00,
12087313,108182FE,true,Tx,0,8,02,8E,00,00,00,00,00,00,
12088119,1081827E,true,Rx,0,8,23,83,00,00,00,00,00,00,
12088555,108182FE,true,Tx,0,8,03,8E,00,00,00,00,00,00,
12090130,108182FE,true,Tx,0,8,04,8E,00,00,00,00,00,00,
12090460,1081827E,true,Rx,0,8,24,83,00,00,00,00,00,00,
12091871,108182FE,true,Tx,0,8,05,8E,00,00,00,00,00,00,
12092764,1081827E,true,Rx,0,8,25,83,00,00,00,00,00,00,
12093276,108182FE,true,Tx,0,8,06,8E,00,00,00,00,00,00,
12094571,108182FE,true,Tx,0,8,07,8E,00,00,00,00,00,00,
12095120,1081827E,true,Rx,0,8,26,83,00,00,00,00,00,00,
12095951,108182FE,true,Tx,0,8,08,8E,00,00,00,00,00,00,
12097409,1081827E,true,Rx,0,8,27,83,00,00,00,00,00,00,
12097264,108182FE,true,Tx,0,8,09,8E,00,00,00,00,00,00,
12098512,108182FE,true,Tx,0,8,0A,8E,00,00,00,00,00,00,
12099766,1081827E,true,Rx,0,8,28,83,00,00,00,00,00,00,
12099810,108182FE,true,Tx,0,8,0B,8E,00,00,00,00,00,00,
12101017,108182FE,true,Tx,0,8,0C,8E,00,00,00,00,00,00,
12102075,1081827E,true,Rx,0,8,29,83,00,00,00,00,00,00,
12102214,108182FE,true,Tx,0,8,0D,8E,00,00,00,00,00,00,
12103373,108182FE,true,Tx,0,8,0E,8E,00,00,00,00,00,00,
12104414,1081827E,true,Rx,0,8,2A,83,00,00,00,00,00,00,
12104549,108182FE,true,Tx,0,8,0F,8E,00,00,00,00,00,00,
12105696,108182FE,true,Tx,0,8,00,8F,00,00,00,00,00,00,
12106769,1081827E,true,Rx,0,8,2B,83,00,00,00,00,00,00,
12106968,108182FE,true,Tx,0,8,01,8F,00,00,00,00,00,00,
12108326,108182FE,true,Tx,0,8,02,8F,00,00,00,00,00,00,
12109058,1081827E,true,Rx,0,8,2C,83,00,00,00,00,00,00,
12109701,108182FE,true,Tx,0,8,03,8F,00,00,00,00,00,00,
12111398,1081827E,true,Rx,0,8,2D,83,00,00,00,00,00,00,
12111137,108182FE,true,Tx,0,8,04,8F,00,00,00,00,00,00,
12112327,108182FE,true,Tx,0,8,05,8F,00,00,00,00,00,00,
12113766,1081827E,true,Rx,0,8,2E,83,00,00,00,00,00,00,
12113602,108182FE,true,Tx,0,8,06,8F,00,00,00,00,00,00,
12114770,108182FE,true,Tx,0,8,07,8F,00,00,00,00,00,00,
12116065,1081827E,true,Rx,0,8,2F,83,00,00,00,00,00,00,
12116109,108182FE,true,Tx,0,8,08,8F,00,00,00,00,00,00,
12117398,108182FE,true,Tx,0,8,09,8F,00,00,00,00,00,00,
12118408,1081827E,true,Rx,0,8,20,84,00,00,00,00,00,00,
12118652,108182FE,true,Tx,0,8,0A,8F,00,00,00,00,00,00,
12119876,108182FE,true,Tx,0,8,0B,8F,00,00,00,00,00,00,
12120732,1081827E,true,Rx,0,8,01,84,00,00,00,00,CD,31,
12121153,108182FE,true,Tx,0,8,0C,8F,00,00,00,00,00,00,
12122365,108182FE,true,Tx,0,8,0D,8F,00,00,00,00,00,00,
12123065,1081827E,true,Rx,0,8,22,84,00,00,00,00,00,00,
12124072,108182FE,true,Tx,0,8,0E,8F,00,00,00,00,00,00,
12125362,1081827E,true,Rx,0,8,23,84,00,00,00,00,00,00,
12125359,108182FE,true,Tx,0,8,0F,8F,00,00,00,00,00,00,
12126509,108182FE,true,Tx,0,8,00,90,00,00,00,00,00,00,
12127761,1081827E,true,Rx,0,8,24,84,00,00,00,00,00,00,
12127776,108182FE,true,Tx,0,8,01,90,00,00,00,00,00,00,
12128919,108182FE,true,Tx,0,8,02,90,00,00,00,00,00,00,
12130064,1081827E,true,Rx,0,8,25,84,00,00,00,00,00,00,
12130131,108182FE,true,Tx,0,8,03,90,00,00,00,00,00,00,
12131318,108182FE,true,Tx,0,8,04,90,00,00,00,00,00,00,
12132348,1081827E,true,Rx,0,8,26,84,00,00,00,00,00,00,
12132582,108182FE,true,Tx,0,8,05,90,00,00,00,00,00,00,
12133765,108182FE,true,Tx,0,8,06,90,00,00,00,00,00,00,
12134729,1081827E,true,Rx,0,8,27,84,00,00,00,00,00,00,
12135053,108182FE,true,Tx,0,8,07,90,00,00,00,00,00,00,
12136231,108182FE,true,Tx,0,8,08,90,00,00,00,00,00,00,
12137012,1081827E,true,Rx,0,8,28,84,00,00,00,00,00,00,
12137477,108182FE,true,Tx,0,8,09,90,00,00,00,00,00,00,
12138652,108182FE,true,Tx,0,8,0A,90,00,00,00,00,00,00,
12139295,1081827E,true,Rx,0,8,29,84,00,00,00,00,00,00,
12141715,1081827E,true,Rx,0,8,2A,84,00,00,00,00,00,00,
12143949,1081827E,true,Rx,0,8,2B,84,00,00,00,00,00,00,
12146287,1081827E,true,Rx,0,8,2C,84,00,00,00,00,00,00,
12148634,1081827E,true,Rx,0,8,2D,84,00,00,00,00,00,00,
12150949,1081827E,true,Rx,0,8,2E,84,00,00,00,00,00,00,
12153302,1081827E,true,Rx,0,8,2F,84,00,00,00,00,00,00,
12153378,108182FE,true,Tx,0,8,0B,90,00,00,00,00,00,00,
12155727,1081827E,true,Rx,0,8,20,85,00,00,00,00,00,00,
12157994,1081827E,true,Rx,0,8,01,85,00,00,00,00,CD,31,
12160260,1081827E,true,Rx,0,8,22,85,00,00,00,00,00,00,
12162575,1081827E,true,Rx,0,8,23,85,00,00,00,00,00,00,
12164889,1081827E,true,Rx,0,8,24,85,00,00,00,00,00,00,
12167185,1081827E,true,Rx,0,8,25,85,00,00,00,00,00,00,
12169023,108182FE,true,Tx,0,8,0C,90,00,00,00,00,00,00,
12169474,1081827E,true,Rx,0,8,26,85,00,00,00,00,00,00,
12170609,108182FE,true,Tx,0,8,0D,90,00,00,00,00,00,00,
12171834,1081827E,true,Rx,0,8,27,85,00,00,00,00,00,00,
12171982,108182FE,true,Tx,0,8,0E,90,00,00,00,00,00,00,
12173574,108182FE,true,Tx,0,8,0F,90,00,00,00,00,00,00,
12174117,1081827E,true,Rx,0,8,29,85,00,00,00,00,00,00,
12175466,108182FE,true,Tx,0,8,00,91,00,00,00,00,00,00,
12176438,1081827E,true,Rx,0,8,2B,85,00,00,00,00,00,00,
12177400,108182FE,true,Tx,0,8,01,91,00,00,00,00,00,00,
12178766,1081827E,true,Rx,0,8,2C,85,00,00,00,00,00,00,
12178906,108182FE,true,Tx,0,8,02,91,00,00,00,00,00,00,
12180284,108182FE,true,Tx,0,8,03,91,00,00,00,00,00,00,
12181063,1081827E,true,Rx,0,8,2D,85,00,00,00,00,00,00,
12181488,108182FE,true,Tx,0,8,04,91,00,00,00,00,00,00,
12182677,108182FE,true,Tx,0,8,05,91,00,00,00,00,00,00,
12183407,1081827E,true,Rx,0,8,2E,85,00,00,00,00,00,00,
12183882,108182FE,true,Tx,0,8,06,91,00,00,00,00,00,00,
12185080,108182FE,true,Tx,0,8,07,91,00,00,00,00,00,00,
12185731,1081827E,true,Rx,0,8,2F,85,00,00,00,00,00,00,
12186299,108182FE,true,Tx,0,8,08,91,00,00,00,00,00,00,
12187518,108182FE,true,Tx,0,8,09,91,00,00,00,00,00,00,
12188064,1081827E,true,Rx,0,8,20,86,00,00,00,00,00,00,
12188763,108182FE,true,Tx,0,8,0A,91,00,00,00,00,00,00,
12190361,1081827E,true,Rx,0,8,01,86,00,06,00,00,00,00,
12190281,108182FE,true,Tx,0,8,0B,91,00,00,00,00,00,00,
12191838,108182FE,true,Tx,0,8,0C,91,00,00,00,00,00,00,
12192731,1081827E,true,Rx,0,8,22,86,00,00,00,00,00,00,
12193002,108182FE,true,Tx,0,8,0D,91,00,00,00,00,00,00,
12194188,108182FE,true,Tx,0,8,0E,91,00,00,00,00,00,00,
12195013,1081827E,true,Rx,0,8,23,86,00,00,00,00,00,00,
12195321,108182FE,true,Tx,0,8,0F,91,00,00,00,00,00,00,
12196484,108182FE,true,Tx,0,8,00,92,00,00,00,00,00,00,
12197348,1081827E,true,Rx,0,8,24,86,00,00,00,00,00,00,
12197627,108182FE,true,Tx,0,8,01,92,00,00,00,00,00,00,
12198782,108182FE,true,Tx,0,8,02,92,00,00,00,00,00,00,
12199724,1081827E,true,Rx,0,8,25,86,00,00,00,00,00,00,
12199907,108182FE,true,Tx,0,8,03,92,00,00,00,00,00,00,
12201095,108182FE,true,Tx,0,8,04,92,00,00,00,00,00,00,
12201950,1081827E,true,Rx,0,8,26,86,00,00,00,00,00,00,
12202268,108182FE,true,Tx,0,8,05,92,00,00,00,00,00,00,
12203482,108182FE,true,Tx,0,8,06,92,00,00,00,00,00,00,
12204299,1081827E,true,Rx,0,8,27,86,00,00,00,00,00,00,
12204668,108182FE,true,Tx,0,8,07,92,00,00,00,00,00,00,
12205887,108182FE,true,Tx,0,8,08,92,00,00,00,00,00,00,
12206729,1081827E,true,Rx,0,8,28,86,00,00,00,00,00,00,
12207820,108182FE,true,Tx,0,8,09,92,00,00,00,00,00,00,
12208955,1081827E,true,Rx,0,8,29,86,00,00,00,00,00,00,
12209621,108182FE,true,Tx,0,8,0A,92,00,00,00,00,00,00,
12210950,108182FE,true,Tx,0,8,0B,92,00,00,00,00,00,00,
12211293,1081827E,true,Rx,0,8,2A,86,00,00,00,00,00,00,
12212257,108182FE,true,Tx,0,8,0C,92,00,00,00,00,00,00,
12213576,1081827E,true,Rx,0,8,2B,86,00,00,00,00,00,00,
12213611,108182FE,true,Tx,0,8,0D,92,00,00,00,00,00,00,
12214910,108182FE,true,Tx,0,8,0E,92,00,00,00,00,00,00,
12215893,1081827E,true,Rx,0,8,2C,86,00,00,00,00,00,00,
12216249,108182FE,true,Tx,0,8,0F,92,00,00,00,00,00,00,
12217667,108182FE,true,Tx,0,8,00,93,00,00,00,00,00,00,
12218237,1081827E,true,Rx,0,8,2D,86,00,00,00,00,00,00,
12219336,108182FE,true,Tx,0,8,01,93,00,00,00,00,00,00,
12220574,1081827E,true,Rx,0,8,2E,86,00,00,00,00,00,00,
12220645,108182FE,true,Tx,0,8,02,93,00,00,00,00,00,00,
12221920,108182FE,true,Tx,0,8,03,93,00,00,00,00,00,00,
12222950,1081827E,true,Rx,0,8,2F,86,00,00,00,00,00,00,
12223724,108182FE,true,Tx,0,8,04,93,00,00,00,00,00,00,
12225233,1081827E,true,Rx,0,8,20,87,00,00,00,00,00,00,
12225608,108182FE,true,Tx,0,8,05,93,00,00,00,00,00,00,
12227574,1081827E,true,Rx,0,8,21,87,00,00,00,00,00,00,
12227277,108182FE,true,Tx,0,8,06,93,00,00,00,00,00,00,
12228604,108182FE,true,Tx,0,8,07,93,00,00,00,00,00,00,
12229888,1081827E,true,Rx,0,8,22,87,00,00,00,00,00,00,
12229924,108182FE,true,Tx,0,8,08,93,00,00,00,00,00,00,
12231205,108182FE,true,Tx,0,8,09,93,00,00,00,00,00,00,
12232167,1081827E,true,Rx,0,8,23,87,00,00,00,00,00,00,
12232527,108182FE,true,Tx,0,8,0A,93,00,00,00,00,00,00,
12233864,108182FE,true,Tx,0,8,0B,93,00,00,00,00,00,00,
12234521,1081827E,true,Rx,0,8,24,87,00,00,00,00,00,00,
12235046,108182FE,true,Tx,0,8,0C,93,00,00,00,00,00,00,
12236214,108182FE,true,Tx,0,8,0D,93,00,00,00,00,00,00,
12236835,1081827E,true,Rx,0,8,25,87,00,00,00,00,00,00,
12237496,108182FE,true,Tx,0,8,0E,93,00,00,00,00,00,00,
12238654,108182FE,true,Tx,0,8,0F,93,00,00,00,00,00,00,
12239129,1081827E,true,Rx,0,8,27,87,00,00,00,00,00,00,
12239907,108182FE,true,Tx,0,8,00,94,00,00,00,00,00,00,
12241460,1081827E,true,Rx,0,8,2A,87,00,00,00,00,00,00,
12241391,108182FE,true,Tx,0,8,01,94,00,00,00,00,00,00,
12243005,108182FE,true,Tx,0,8,02,94,00,00,00,00,00,00,
12243761,1081827E,true,Rx,0,8,2B,87,00,00,00,00,00,00,
12244254,108182FE,true,Tx,0,8,03,94,00,00,00,00,00,00,
12246120,1081827E,true,Rx,0,8,2C,87,00,00,00,00,00,00,
12246559,108182FE,true,Tx,0,8,04,94,00,00,00,00,00,00,
12247940,108182FE,true,Tx,0,8,05,94,00,00,00,00,00,00,
12248421,1081827E,true,Rx,0,8,2E,87,00,00,00,00,00,00,
12249460,108182FE,true,Tx,0,8,06,94,00,00,00,00,00,00,
12250769,1081827E,true,Rx,0,8,20,88,00,00,00,00,00,00,
12250635,108182FE,true,Tx,0,8,07,94,00,00,00,00,00,00,
12251808,108182FE,true,Tx,0,8,08,94,00,00,00,00,00,00,
12253067,1081827E,true,Rx,0,8,22,88,00,00,00,00,00,00,
12253023,108182FE,true,Tx,0,8,09,94,00,00,00,00,00,00,
12254189,108182FE,true,Tx,0,8,0A,94,00,00,00,00,00,00,
12255413,1081827E,true,Rx,0,8,24,88,00,00,00,00,00,00,
12255396,108182FE,true,Tx,0,8,0B,94,00,00,00,00,00,00,
12256686,108182FE,true,Tx,0,8,0C,94,00,00,00,00,00,00,
12257743,1081827E,true,Rx,0,8,25,88,00,00,00,00,00,00,
12258627,108182FE,true,Tx,0,8,0D,94,00,00,00,00,00,00,
12260064,1081827E,true,Rx,0,8,28,88,00,00,00,00,00,00,
12260019,108182FE,true,Tx,0,8,0E,94,00,00,00,00,00,00,
12261553,108182FE,true,Tx,0,8,0F,94,00,00,00,00,00,00,
12262413,1081827E,true,Rx,0,8,29,88,00,00,00,00,00,00,
12262908,108182FE,true,Tx,0,8,00,95,00,00,00,00,00,00,
12264165,108182FE,true,Tx,0,8,01,95,00,00,00,00,00,00,
12264730,1081827E,true,Rx,0,8,2A,88,00,00,00,00,00,00,
12265573,108182FE,true,Tx,0,8,02,95,00,00,00,00,00,00,
12267071,1081827E,true,Rx,0,8,2C,88,00,00,00,00,00,00,
12266802,108182FE,true,Tx,0,8,03,95,00,00,00,00,00,00,
12267990,108182FE,true,Tx,0,8,04,95,00,00,00,00,00,00,
12269355,1081827E,true,Rx,0,8,2E,88,00,00,00,00,00,00,
12269228,108182FE,true,Tx,0,8,05,95,00,00,00,00,00,00,
12270546,108182FE,true,Tx,0,8,06,95,00,00,00,00,00,00,
12271733,1081827E,true,Rx,0,8,20,89,00,00,00,00,00,00,
12271770,108182FE,true,Tx,0,8,07,95,00,00,00,00,00,00,
12272970,108182FE,true,Tx,0,8,08,95,00,00,00,00,00,00,
12274011,1081827E,true,Rx,0,8,22,89,00,00,00,00,00,00,
12274738,108182FE,true,Tx,0,8,09,95,00,00,00,00,00,00,
12276287,1081827E,true,Rx,0,8,24,89,00,00,00,00,00,00,
12275988,108182FE,true,Tx,0,8,0A,95,00,00,00,00,00,00,
12277140,108182FE,true,Tx,0,8,0B,95,00,00,00,00,00,00,
12278724,1081827E,true,Rx,0,8,26,89,00,00,00,00,00,00,
12278489,108182FE,true,Tx,0,8,0C,95,00,00,00,00,00,00,
12279745,108182FE,true,Tx,0,8,0D,95,00,00,00,00,00,00,
12280951,1081827E,true,Rx,0,8,28,89,00,00,00,00,00,00,
12281116,108182FE,true,Tx,0,8,0E,95,00,00,00,00,00,00,
12282341,108182FE,true,Tx,0,8,0F,95,00,00,00,00,00,00,
12283298,1081827E,true,Rx,0,8,2A,89,00,00,00,00,00,00,
12283541,108182FE,true,Tx,0,8,00,96,00,00,00,00,00,00,
12284761,108182FE,true,Tx,0,8,01,96,00,00,00,00,00,00,
12285583,1081827E,true,Rx,0,8,2C,89,00,00,00,00,00,00,
12285996,108182FE,true,Tx,0,8,02,96,00,00,00,00,00,00,
12287292,108182FE,true,Tx,0,8,03,96,00,00,00,00,00,00,
12287956,1081827E,true,Rx,0,8,2E,89,00,00,00,00,00,00,
12288520,108182FE,true,Tx,0,8,04,96,00,00,00,00,00,00,
12289702,108182FE,true,Tx,0,8,05,96,00,00,00,00,00,00,
12290240,1081827E,true,Rx,0,8,20,8A,00,00,00,00,00,00,
12291521,108182FE,true,Tx,0,8,06,96,00,00,00,00,00,00,
12292575,1081827E,true,Rx,0,8,22,8A,00,00,00,00,00,00,
12292864,108182FE,true,Tx,0,8,07,96,00,00,00,00,00,00,
12294478,108182FE,true,Tx,0,8,08,96,00,00,00,00,00,00,
12294886,1081827E,true,Rx,0,8,24,8A,00,00,00,00,00,00,
12295811,108182FE,true,Tx,0,8,09,96,00,00,00,00,00,00,
12297177,1081827E,true,Rx,0,8,25,8A,00,00,00,00,00,00,
12296981,108182FE,true,Tx,0,8,0A,96,00,00,00,00,00,00,
12298182,108182FE,true,Tx,0,8,0B,96,00,00,00,00,00,00,
12299535,1081827E,true,Rx,0,8,27,8A,00,00,00,00,00,00,
12299567,108182FE,true,Tx,0,8,0C,96,00,00,00,00,00,00,
12300721,108182FE,true,Tx,0,8,0D,96,00,00,00,00,00,00,
12301836,1081827E,true,Rx,0,8,29,8A,00,00,00,00,00,00,
12301874,108182FE,true,Tx,0,8,0E,96,00,00,00,00,00,00,
12302992,108182FE,true,Tx,0,8,0F,96,00,00,00,00,00,00,
12304163,108182FE,true,Tx,0,8,00,97,00,00,00,00,00,00,
12305338,108182FE,true,Tx,0,8,01,97,00,00,00,00,00,00,
12306470,1081827E,true,Rx,0,8,2B,8A,00,00,00,00,00,00,
12306478,1001117E,true,Rx,0,8,00,01,00,00,00,00,00,00,
12306479,1081827E,true,Rx,0,8,2D,8A,00,00,00,00,00,00,
12306506,108182FE,true,Tx,0,8,02,97,00,00,00,00,00,00,
12307912,108182FE,true,Tx,0,8,03,97,00,00,00,00,00,00,
12309481,108182FE,true,Tx,0,8,04,97,00,00,00,00,00,00,
12309942,1081827E,true,Rx,0,8,2F,8A,00,00,00,00,00,00,
12310685,108182FE,true,Tx,0,8,05,97,00,00,00,00,00,00,
12311855,108182FE,true,Tx,0,8,06,97,00,00,00,00,00,00,
12312302,1081827E,true,Rx,0,8,21,8B,00,00,00,00,00,00,
12313024,108182FE,true,Tx,0,8,07,97,00,00,00,00,00,00,
12314209,108182FE,true,Tx,0,8,08,97,00,00,00,00,00,00,
12314724,1081827E,true,Rx,0,8,23,8B,00,00,00,00,00,00,
12315338,108182FE,true,Tx,0,8,09,97,00,00,00,00,00,00,
12316452,108182FE,true,Tx,0,8,0A,97,00,00,00,00,00,00,
12316959,1081827E,true,Rx,0,8,25,8B,00,00,00,00,00,00,
12317606,108182FE,true,Tx,0,8,0B,97,00,00,00,00,00,00,
12318713,108182FE,true,Tx,0,8,0C,97,00,00,00,00,00,00,
12319240,1081827E,true,Rx,0,8,27,8B,00,00,00,00,00,00,
12319850,108182FE,true,Tx,0,8,0D,97,00,00,00,00,00,00,
12321527,1081827E,true,Rx,0,8,28,8B,00,00,00,00,00,00,
12321292,108182FE,true,Tx,0,8,0E,97,00,00,00,00,00,00,
12322522,108182FE,true,Tx,0,8,0F,97,00,00,00,00,00,00,
12323882,1081827E,true,Rx,0,8,2A,8B,00,00,00,00,00,00,
12323939,108182FE,true,Tx,0,8,00,98,00,00,00,00,00,00,
12325274,108182FE,true,Tx,0,8,01,98,00,00,00,00,00,00,
12326180,1081827E,true,Rx,0,8,2C,8B,00,00,00,00,00,00,
12326909,108182FE,true,Tx,0,8,02,98,00,00,00,00,00,00,
12328138,108182FE,true,Tx,0,8,03,98,00,00,00,00,00,00,
12328520,1081827E,true,Rx,0,8,2F,8B,00,00,00,00,00,00,
12329563,108182FE,true,Tx,0,8,04,98,00,00,00,00,00,00,
12330837,1081827E,true,Rx,0,8,20,8C,00,00,00,00,00,00,
12330806,108182FE,true,Tx,0,8,05,98,00,00,00,00,00,00,
12331907,108182FE,true,Tx,0,8,06,98,00,00,00,00,00,00,
12333189,1081827E,true,Rx,0,8,22,8C,00,00,00,00,00,00,
12333251,108182FE,true,Tx,0,8,07,98,00,00,00,00,00,00,
12334367,108182FE,true,Tx,0,8,08,98,00,00,00,00,00,00,
12335523,1081827E,true,Rx,0,8,23,8C,00,00,00,00,00,00,
12335527,108182FE,true,Tx,0,8,09,98,00,00,00,00,00,00,
12336942,108182FE,true,Tx,0,8,0A,98,00,00,00,00,00,00,
12337843,1081827E,true,Rx,0,8,25,8C,00,00,00,00,00,00,
12338206,108182FE,true,Tx,0,8,0B,98,00,00,00,00,00,00,
12339369,108182FE,true,Tx,0,8,0C,98,00,00,00,00,00,00,
12340119,1081827E,true,Rx,0,8,28,8C,00,00,00,00,00,00,
12340713,108182FE,true,Tx,0,8,0D,98,00,00,00,00,00,00,
12342475,1081827E,true,Rx,0,8,29,8C,00,00,00,00,00,00,
12342288,108182FE,true,Tx,0,8,0E,98,00,00,00,00,00,00,
12343568,108182FE,true,Tx,0,8,0F,98,00,00,00,00,00,00,
12344833,1081827E,true,Rx,0,8,2B,8C,00,00,00,00,00,00,
12344738,108182FE,true,Tx,0,8,00,99,00,00,00,00,00,00,
12345871,108182FE,true,Tx,0,8,01,99,00,00,00,00,00,00,
12347119,1081827E,true,Rx,0,8,2D,8C,00,00,00,00,00,00,
12347001,108182FE,true,Tx,0,8,02,99,00,00,00,00,00,00,
12348137,108182FE,true,Tx,0,8,03,99,00,00,00,00,00,00,
12349477,1081827E,true,Rx,0,8,2E,8C,00,00,00,00,00,00,
12349248,108182FE,true,Tx,0,8,04,99,00,00,00,00,00,00,
12350340,108182FE,true,Tx,0,8,05,99,00,00,00,00,00,00,
12351769,1081827E,true,Rx,0,8,20,8D,00,00,00,00,00,00,
12351487,108182FE,true,Tx,0,8,06,99,00,00,00,00,00,00,
12352567,108182FE,true,Tx,0,8,07,99,00,00,00,00,00,00,
12353681,108182FE,true,Tx,0,8,08,99,00,00,00,00,00,00,
12354124,1081827E,true,Rx,0,8,22,8D,00,00,00,00,00,00,
12354817,108182FE,true,Tx,0,8,09,99,00,00,00,00,00,00,
12355881,108182FE,true,Tx,0,8,0A,99,00,00,00,00,00,00,
12356410,1081827E,true,Rx,0,8,24,8D,00,00,00,00,00,00,
12357031,108182FE,true,Tx,0,8,0B,99,00,00,00,00,00,00,
12358735,1081827E,true,Rx,0,8,26,8D,00,00,00,00,00,00,
12358469,108182FE,true,Tx,0,8,0C,99,00,00,00,00,00,00,
12359928,108182FE,true,Tx,0,8,0D,99,00,00,00,00,00,00,
12361065,1081827E,true,Rx,0,8,28,8D,00,00,00,00,00,00,
12361473,108182FE,true,Tx,0,8,0E,99,00,00,00,00,00,00,
12362927,108182FE,true,Tx,0,8,0F,99,00,00,00,00,00,00,
12363352,1081827E,true,Rx,0,8,2A,8D,00,00,00,00,00,00,
12364110,108182FE,true,Tx,0,8,00,9A,00,00,00,00,00,00,
12365296,108182FE,true,Tx,0,8,01,9A,00,00,00,00,00,00,
12366495,108182FE,true,Tx,0,8,02,9A,00,00,00,00,00,00,
12366842,1081827E,true,Rx,0,8,2B,8D,00,00,00,00,00,00,
12366843,1081827E,true,Rx,0,8,2D,8D,00,00,00,00,00,00,
12367612,108182FE,true,Tx,0,8,03,9A,00,00,00,00,00,00,
12368788,108182FE,true,Tx,0,8,04,9A,00,00,00,00,00,00,
12369855,108182FE,true,Tx,0,8,05,9A,00,00,00,00,00,00,
12370303,1081827E,true,Rx,0,8,2F,8D,00,00,00,00,00,00,
12371016,108182FE,true,Tx,0,8,06,9A,00,00,00,00,00,00,
12372083,108182FE,true,Tx,0,8,07,9A,00,00,00,00,00,00,
12372726,1081827E,true,Rx,0,8,21,8E,00,00,00,00,00,00,
12373230,108182FE,true,Tx,0,8,08,9A,00,00,00,00,00,00,
12374619,108182FE,true,Tx,0,8,09,9A,00,00,00,00,00,00,
12374954,1081827E,true,Rx,0,8,23,8E,00,00,00,00,00,00,
12376855,108182FE,true,Tx,0,8,0A,9A,00,00,00,00,00,00,
12377314,1081827E,true,Rx,0,8,24,8E,00,00,00,00,00,00,
12378086,108182FE,true,Tx,0,8,0B,9A,00,00,00,00,00,00,
12379589,1081827E,true,Rx,0,8,26,8E,00,00,00,00,00,00,
12379270,108182FE,true,Tx,0,8,0C,9A,00,00,00,00,00,00,
12380429,108182FE,true,Tx,0,8,0D,9A,00,00,00,00,00,00,
12381561,108182FE,true,Tx,0,8,0E,9A,00,00,00,00,00,00,
12381894,1081827E,true,Rx,0,8,28,8E,00,00,00,00,00,00,
12382730,108182FE,true,Tx,0,8,0F,9A,00,00,00,00,00,00,
12383884,108182FE,true,Tx,0,8,00,9B,00,00,00,00,00,00,
12384245,1081827E,true,Rx,0,8,29,8E,00,00,00,00,00,00,
12385066,108182FE,true,Tx,0,8,01,9B,00,00,00,00,00,00,
12386187,108182FE,true,Tx,0,8,02,9B,00,00,00,00,00,00,
12386526,1081827E,true,Rx,0,8,2B,8E,00,00,00,00,00,00,
12387339,108182FE,true,Tx,0,8,03,9B,00,00,00,00,00,00,
12388468,108182FE,true,Tx,0,8,04,9B,00,00,00,00,00,00,
12388897,1081827E,true,Rx,0,8,2D,8E,00,00,00,00,00,00,
12391187,1081827E,true,Rx,0,8,2F,8E,00,00,00,00,00,00,
12393526,1081827E,true,Rx,0,8,21,8F,00,00,00,00,00,00,
12395834,1081827E,true,Rx,0,8,23,8F,00,00,00,00,00,00,
12398183,1081827E,true,Rx,0,8,24,8F,00,00,00,00,00,00,
12400469,1081827E,true,Rx,0,8,26,8F,00,00,00,00,00,00,
12402248,108182FE,true,Tx,0,8,05,9B,00,00,00,00,00,00,
12402770,1081827E,true,Rx,0,8,28,8F,00,00,00,00,00,00,
12405171,1081827E,true,Rx,0,8,2A,8F,00,00,00,00,00,00,
12407414,1081827E,true,Rx,0,8,2C,8F,00,00,00,00,00,00,
12409781,1081827E,true,Rx,0,8,2E,8F,00,00,00,00,00,00,
12412105,1081827E,true,Rx,0,8,2F,8F,00,00,00,00,00,00,
12414416,1081827E,true,Rx,0,8,21,90,00,00,00,00,00,00,
12416770,1081827E,true,Rx,0,8,23,90,00,00,00,00,00,00,
12417614,108182FE,true,Tx,0,8,06,9B,00,00,00,00,00,00,
12419069,1081827E,true,Rx,0,8,25,90,00,00,00,00,00,00,
12421412,1081827E,true,Rx,0,8,27,90,00,00,00,00,00,00,
12423722,1081827E,true,Rx,0,8,29,90,00,00,00,00,00,00,
12426043,1081827E,true,Rx,0,8,2B,90,00,00,00,00,00,00,
12428352,1081827E,true,Rx,0,8,2C,90,00,00,00,00,00,00,
12430345,108182FE,true,Tx,0,8,07,9B,00,00,00,00,00,00,
12430766,1081827E,true,Rx,0,8,2D,90,00,00,00,00,00,00,
12431825,108182FE,true,Tx,0,8,08,9B,00,00,00,00,00,00,
12433068,1081827E,true,Rx,0,8,2E,90,00,00,00,00,00,00,
12433019,108182FE,true,Tx,0,8,09,9B,00,00,00,00,00,00,
12434290,108182FE,true,Tx,0,8,0A,9B,00,00,00,00,00,00,
12435357,1081827E,true,Rx,0,8,2F,90,00,00,00,00,00,00,
12435455,108182FE,true,Tx,0,8,0B,9B,00,00,00,00,00,00,
12436590,108182FE,true,Tx,0,8,0C,9B,00,00,00,00,00,00,
12437728,1081827E,true,Rx,0,8,20,91,00,00,00,00,00,00,
12437801,108182FE,true,Tx,0,8,0D,9B,00,00,00,00,00,00,
12438911,108182FE,true,Tx,0,8,0E,9B,00,00,00,00,00,00,
12440017,1081827E,true,Rx,0,8,21,91,00,00,00,00,00,00,
12440066,108182FE,true,Tx,0,8,0F,9B,00,00,00,00,00,00,
12441716,108182FE,true,Tx,0,8,00,9C,00,00,00,00,00,00,
12442346,1081827E,true,Rx,0,8,22,91,00,00,00,00,00,00,
12443415,108182FE,true,Tx,0,8,01,9C,00,00,00,00,00,00,
12444729,1081827E,true,Rx,0,8,23,91,00,00,00,00,00,00,
12444956,108182FE,true,Tx,0,8,02,9C,00,00,00,00,00,00,
12446938,1081827E,true,Rx,0,8,24,91,00,00,00,00,00,00,
12448506,108182FE,true,Tx,0,8,03,9C,00,00,00,00,00,00,
12449292,1081827E,true,Rx,0,8,25,91,00,00,00,00,00,00,
12450122,108182FE,true,Tx,0,8,04,9C,00,00,00,00,00,00,
12451588,1081827E,true,Rx,0,8,26,91,00,00,00,00,00,00,
12451402,108182FE,true,Tx,0,8,05,9C,00,00,00,00,00,00,
12452771,108182FE,true,Tx,0,8,06,9C,00,00,00,00,00,00,
12453894,1081827E,true,Rx,0,8,27,91,00,00,00,00,00,00,
12454069,108182FE,true,Tx,0,8,07,9C,00,00,00,00,00,00,
12455515,108182FE,true,Tx,0,8,08,9C,00,00,00,00,00,00,
12456170,1081827E,true,Rx,0,8,28,91,00,00,00,00,00,00,
12457149,108182FE,true,Tx,0,8,09,9C,00,00,00,00,00,00,
12458507,1081827E,true,Rx,0,8,29,91,00,00,00,00,00,00,
12458861,108182FE,true,Tx,0,8,0A,9C,00,00,00,00,00,00,
12460211,108182FE,true,Tx,0,8,0B,9C,00,00,00,00,00,00,
12460827,1081827E,true,Rx,0,8,2A,91,00,00,00,00,00,00,
12461627,108182FE,true,Tx,0,8,0C,9C,00,00,00,00,00,00,
12462813,108182FE,true,Tx,0,8,0D,9C,00,00,00,00,00,00,
12463179,1081827E,true,Rx,0,8,2B,91,00,00,00,00,00,00,
12464055,108182FE,true,Tx,0,8,0E,9C,00,00,00,00,00,00,
12465470,1081827E,true,Rx,0,8,2C,91,00,00,00,00,00,00,
12465268,108182FE,true,Tx,0,8,0F,9C,00,00,00,00,00,00,
12466440,108182FE,true,Tx,0,8,00,9D,00,00,00,00,00,00,
12467768,1081827E,true,Rx,0,8,2D,91,00,00,00,00,00,00,
12467612,108182FE,true,Tx,0,8,01,9D,00,00,00,00,00,00,
12468739,108182FE,true,Tx,0,8,02,9D,00,00,00,00,00,00,
12470067,1081827E,true,Rx,0,8,2E,91,00,00,00,00,00,00,
12469853,108182FE,true,Tx,0,8,03,9D,00,00,00,00,00,00,
12470975,108182FE,true,Tx,0,8,04,9D,00,00,00,00,00,00,
12472092,108182FE,true,Tx,0,8,05,9D,00,00,00,00,00,00,
12472413,1081827E,true,Rx,0,8,2F,91,00,00,00,00,00,00,
12473249,108182FE,true,Tx,0,8,06,9D,00,00,00,00,00,00,
12474781,1081827E,true,Rx,0,8,20,92,00,00,00,00,00,00,
12474687,108182FE,true,Tx,0,8,07,9D,00,00,00,00,00,00,
12476308,108182FE,true,Tx,0,8,08,9D,00,00,00,00,00,00,
12477060,1081827E,true,Rx,0,8,21,92,00,00,00,00,00,00,
12477738,108182FE,true,Tx,0,8,09,9D,00,00,00,00,00,00,
12479028,108182FE,true,Tx,0,8,0A,9D,00,00,00,00,00,00,
12479413,1081827E,true,Rx,0,8,22,92,00,00,00,00,00,00,
12480114,108182FE,true,Tx,0,8,0B,9D,00,00,00,00,00,00,
12481240,108182FE,true,Tx,0,8,0C,9D,00,00,00,00,00,00,
12481728,1081827E,true,Rx,0,8,23,92,00,00,00,00,00,00,
12482311,108182FE,true,Tx,0,8,0D,9D,00,00,00,00,00,00,
12483426,108182FE,true,Tx,0,8,0E,9D,00,00,00,00,00,00,
12484010,1081827E,true,Rx,0,8,24,92,00,00,00,00,00,00,
12484533,108182FE,true,Tx,0,8,0F,9D,00,00,00,00,00,00,
12485654,108182FE,true,Tx,0,8,00,9E,00,00,00,00,00,00,
12486354,1081827E,true,Rx,0,8,25,92,00,00,00,00,00,00,
12486783,108182FE,true,Tx,0,8,01,9E,00,00,00,00,00,00,
12487933,108182FE,true,Tx,0,8,02,9E,00,00,00,00,00,00,
12488728,1081827E,true,Rx,0,8,26,92,00,00,00,00,00,00,
12489028,108182FE,true,Tx,0,8,03,9E,00,00,00,00,00,00,
12490558,108182FE,true,Tx,0,8,04,9E,00,00,00,00,00,00,
12491011,1081827E,true,Rx,0,8,27,92,00,00,00,00,00,00,
12492068,108182FE,true,Tx,0,8,05,9E,00,00,00,00,00,00,
12493290,1081827E,true,Rx,0,8,29,92,00,00,00,00,00,00,
12493454,108182FE,true,Tx,0,8,06,9E,00,00,00,00,00,00,
12495191,108182FE,true,Tx,0,8,07,9E,00,00,00,00,00,00,
12495623,1081827E,true,Rx,0,8,2A,92,00,00,00,00,00,00,
12496637,108182FE,true,Tx,0,8,08,9E,00,00,00,00,00,00,
12497951,1081827E,true,Rx,0,8,2B,92,00,00,00,00,00,00,
12497833,108182FE,true,Tx,0,8,09,9E,00,00,00,00,00,00,
12498984,108182FE,true,Tx,0,8,0A,9E,00,00,00,00,00,00,
12500248,1081827E,true,Rx,0,8,2D,92,00,00,00,00,00,00,
12500161,108182FE,true,Tx,0,8,0B,9E,00,00,00,00,00,00,
12501307,108182FE,true,Tx,0,8,0C,9E,00,00,00,00,00,00,
12502587,1081827E,true,Rx,0,8,2F,92,00,00,00,00,00,00,
12502444,108182FE,true,Tx,0,8,0D,9E,00,00,00,00,00,00,
12503576,108182FE,true,Tx,0,8,0E,9E,00,00,00,00,00,00,
12504895,1081827E,true,Rx,0,8,21,93,00,00,00,00,00,00,
12504755,108182FE,true,Tx,0,8,0F,9E,00,00,00,00,00,00,
12505909,108182FE,true,Tx,0,8,00,9F,00,00,00,00,00,00,
12507243,1081827E,true,Rx,0,8,22,93,00,00,00,00,00,00,
12507132,108182FE,true,Tx,0,8,01,9F,00,00,00,00,00,00,
12508683,108182FE,true,Tx,0,8,02,9F,00,00,00,00,00,00,
12509528,1081827E,true,Rx,0,8,24,93,00,00,00,00,00,00,
12509924,108182FE,true,Tx,0,8,03,9F,00,00,00,00,00,00,
12511183,108182FE,true,Tx,0,8,04,9F,00,00,00,00,00,00,
12511840,1081827E,true,Rx,0,8,25,93,00,00,00,00,00,00,
12512570,108182FE,true,Tx,0,8,05,9F,00,00,00,00,00,00,
12513680,108182FE,true,Tx,0,8,06,9F,00,00,00,00,00,00,
12514189,1081827E,true,Rx,0,8,26,93,00,00,00,00,00,00,
12514940,108182FE,true,Tx,0,8,07,9F,00,00,00,00,00,00,
12516128,108182FE,true,Tx,0,8,08,9F,00,00,00,00,00,00,
12516474,1081827E,true,Rx,0,8,28,93,00,00,00,00,00,00,
12517274,108182FE,true,Tx,0,8,09,9F,00,00,00,00,00,00,
12518435,108182FE,true,Tx,0,8,0A,9F,00,00,00,00,00,00,
12518838,1081827E,true,Rx,0,8,2A,93,00,00,00,00,00,00,
12519632,108182FE,true,Tx,0,8,0B,9F,00,00,00,00,00,00,
12520756,108182FE,true,Tx,0,8,0C,9F,00,00,00,00,00,00,
12521188,1081827E,true,Rx,0,8,2C,93,00,00,00,00,00,00,
12522216,108182FE,true,Tx,0,8,0D,9F,00,00,00,00,00,00,
12523473,1081827E,true,Rx,0,8,2E,93,00,00,00,00,00,00,
12523731,108182FE,true,Tx,0,8,0E,9F,00,00,00,00,00,00,
12525829,1081827E,true,Rx,0,8,20,94,00,00,00,00,00,00,
12525519,108182FE,true,Tx,0,8,0F,9F,00,00,00,00,00,00,
12526704,108182FE,true,Tx,0,8,00,A0,00,00,00,00,00,00,
12528127,1081827E,true,Rx,0,8,21,94,00,00,00,00,00,00,
12528275,108182FE,true,Tx,0,8,01,A0,00,00,00,00,00,00,
12529663,108182FE,true,Tx,0,8,02,A0,00,00,00,00,00,00,
12530466,1081827E,true,Rx,0,8,23,94,00,00,00,00,00,00,
12531093,108182FE,true,Tx,0,8,03,A0,00,00,00,00,00,00,
12532316,108182FE,true,Tx,0,8,04,A0,00,00,00,00,00,00,
12532832,1081827E,true,Rx,0,8,24,94,00,00,00,00,00,00,
12533746,108182FE,true,Tx,0,8,05,A0,00,00,00,00,00,00,
12535078,108182FE,true,Tx,0,8,06,A0,00,00,00,00,00,00,
12536301,1081827E,true,Rx,0,8,26,94,00,00,00,00,00,00,
12536301,1081827E,true,Rx,0,8,27,94,00,00,00,00,00,00,
12536462,108182FE,true,Tx,0,8,07,A0,00,00,00,00,00,00,
12537671,108182FE,true,Tx,0,8,08,A0,00,00,00,00,00,00,
12538812,108182FE,true,Tx,0,8,09,A0,00,00,00,00,00,00,
12539771,1081827E,true,Rx,0,8,29,94,00,00,00,00,00,00,
12540309,108182FE,true,Tx,0,8,0A,A0,00,00,00,00,00,00,
12542130,1081827E,true,Rx,0,8,2B,94,00,00,00,00,00,00,
12542231,108182FE,true,Tx,0,8,0B,A0,00,00,00,00,00,00,
12543609,108182FE,true,Tx,0,8,0C,A0,00,00,00,00,00,00,
12544403,1081827E,true,Rx,0,8,2D,94,00,00,00,00,00,00,
12544958,108182FE,true,Tx,0,8,0D,A0,00,00,00,00,00,00,
12546399,108182FE,true,Tx,0,8,0E,A0,00,00,00,00,00,00,
12546770,1081827E,true,Rx,0,8,2E,94,00,00,00,00,00,00,
12547826,108182FE,true,Tx,0,8,0F,A0,00,00,00,00,00,00,
12549065,1081827E,true,Rx,0,8,20,95,00,00,00,00,00,00,
12549271,108182FE,true,Tx,0,8,00,A1,00,00,00,00,00,00,
12550460,108182FE,true,Tx,0,8,01,A1,00,00,00,00,00,00,
12551418,1081827E,true,Rx,0,8,22,95,00,00,00,00,00,00,
12551585,108182FE,true,Tx,0,8,02,A1,00,00,00,00,00,00,
12552700,108182FE,true,Tx,0,8,03,A1,00,00,00,00,00,00,
12553731,1081827E,true,Rx,0,8,23,95,00,00,00,00,00,00,
12553777,108182FE,true,Tx,0,8,04,A1,00,00,00,00,00,00,
12554894,108182FE,true,Tx,0,8,05,A1,00,00,00,00,00,00,
12556010,1081827E,true,Rx,0,8,25,95,00,00,00,00,00,00,
12556054,108182FE,true,Tx,0,8,06,A1,00,00,00,00,00,00,
12557424,108182FE,true,Tx,0,8,07,A1,00,00,00,00,00,00,
12558341,1081827E,true,Rx,0,8,27,95,00,00,00,00,00,00,
12559025,108182FE,true,Tx,0,8,08,A1,00,00,00,00,00,00,
12560725,1081827E,true,Rx,0,8,29,95,00,00,00,00,00,00,
12560437,108182FE,true,Tx,0,8,09,A1,00,00,00,00,00,00,
12561592,108182FE,true,Tx,0,8,0A,A1,00,00,00,00,00,00,
12563012,1081827E,true,Rx,0,8,2A,95,00,00,00,00,00,00,
12562783,108182FE,true,Tx,0,8,0B,A1,00,00,00,00,00,00,
12564176,108182FE,true,Tx,0,8,0C,A1,00,00,00,00,00,00,
12565299,1081827E,true,Rx,0,8,2C,95,00,00,00,00,00,00,
12565402,108182FE,true,Tx,0,8,0D,A1,00,00,00,00,00,00,
12566541,108182FE,true,Tx,0,8,0E,A1,00,00,00,00,00,00,
12567728,1081827E,true,Rx,0,8,2E,95,00,00,00,00,00,00,
12567776,108182FE,true,Tx,0,8,0F,A1,00,00,00,00,00,00,
12568896,108182FE,true,Tx,0,8,00,A2,00,00,00,00,00,00,
12569953,1081827E,true,Rx,0,8,20,96,00,00,00,00,00,00,
12570044,108182FE,true,Tx,0,8,01,A2,00,00,00,00,00,00,
12571192,108182FE,true,Tx,0,8,02,A2,00,00,00,00,00,00,
12572249,1081827E,true,Rx,0,8,22,96,00,00,00,00,00,00,
12572306,108182FE,true,Tx,0,8,03,A2,00,00,00,00,00,00,
12573477,108182FE,true,Tx,0,8,04,A2,00,00,00,00,00,00,
12574651,1081827E,true,Rx,0,8,24,96,00,00,00,00,00,00,
12575009,108182FE,true,Tx,0,8,05,A2,00,00,00,00,00,00,
12576515,108182FE,true,Tx,0,8,06,A2,00,00,00,00,00,00,
12576889,1081827E,true,Rx,0,8,26,96,00,00,00,00,00,00,
12577736,108182FE,true,Tx,0,8,07,A2,00,00,00,00,00,00,
12578917,108182FE,true,Tx,0,8,08,A2,00,00,00,00,00,00,
12579235,1081827E,true,Rx,0,8,27,96,00,00,00,00,00,00,
12580060,108182FE,true,Tx,0,8,09,A2,00,00,00,00,00,00,
12581182,108182FE,true,Tx,0,8,0A,A2,00,00,00,00,00,00,
12581529,1081827E,true,Rx,0,8,29,96,00,00,00,00,00,00,
12582319,108182FE,true,Tx,0,8,0B,A2,00,00,00,00,00,00,
12583468,108182FE,true,Tx,0,8,0C,A2,00,00,00,00,00,00,
12583895,1081827E,true,Rx,0,8,2A,96,00,00,00,00,00,00,
12584556,108182FE,true,Tx,0,8,0D,A2,00,00,00,00,00,00,
12585680,108182FE,true,Tx,0,8,0E,A2,00,00,00,00,00,00,
12586185,1081827E,true,Rx,0,8,2C,96,00,00,00,00,00,00,
12586830,108182FE,true,Tx,0,8,0F,A2,00,00,00,00,00,00,
12587923,108182FE,true,Tx,0,8,00,A3,00,00,00,00,00,00,
12588468,1081827E,true,Rx,0,8,2E,96,00,00,00,00,00,00,
12589112,108182FE,true,Tx,0,8,01,A3,00,00,00,00,00,00,
12590225,108182FE,true,Tx,0,8,02,A3,00,00,00,00,00,00,
12590835,1081827E,true,Rx,0,8,22,97,00,00,00,00,00,00,
12591728,108182FE,true,Tx,0,8,03,A3,00,00,00,00,00,00,
12593122,1081827E,true,Rx,0,8,23,97,00,00,00,00,00,00,
12593184,108182FE,true,Tx,0,8,04,A3,00,00,00,00,00,00,
12594469,108182FE,true,Tx,0,8,05,A3,00,00,00,00,00,00,
12595447,1081827E,true,Rx,0,8,25,97,00,00,00,00,00,00,
12595935,108182FE,true,Tx,0,8,06,A3,00,00,00,00,00,00,
12597111,108182FE,true,Tx,0,8,07,A3,00,00,00,00,00,00,
12597730,1081827E,true,Rx,0,8,27,97,00,00,00,00,00,00,
12598279,108182FE,true,Tx,0,8,08,A3,00,00,00,00,00,00,
12599468,108182FE,true,Tx,0,8,09,A3,00,00,00,00,00,00,
12600073,1081827E,true,Rx,0,8,29,97,00,00,00,00,00,00,
12600656,108182FE,true,Tx,0,8,0A,A3,00,00,00,00,00,00,
12601800,108182FE,true,Tx,0,8,0B,A3,00,00,00,00,00,00,
12602368,1081827E,true,Rx,0,8,2B,97,00,00,00,00,00,00,
12602945,108182FE,true,Tx,0,8,0C,A3,00,00,00,00,00,00,
12604066,108182FE,true,Tx,0,8,0D,A3,00,00,00,00,00,00,
12604731,1081827E,true,Rx,0,8,2D,97,00,00,00,00,00,00,
12605209,108182FE,true,Tx,0,8,0E,A3,00,00,00,00,00,00,
12606333,108182FE,true,Tx,0,8,0F,A3,00,00,00,00,00,00,
12607020,1081827E,true,Rx,0,8,2E,97,00,00,00,00,00,00,
12607616,108182FE,true,Tx,0,8,00,A4,00,00,00,00,00,00,
12608829,108182FE,true,Tx,0,8,01,A4,00,00,00,00,00,00,
12610512,1081827E,true,Rx,0,8,20,98,00,00,00,00,00,00,
12610513,1081827E,true,Rx,0,8,22,98,00,00,00,00,00,00,
12610328,108182FE,true,Tx,0,8,02,A4,00,00,00,00,00,00,
12611469,108182FE,true,Tx,0,8,03,A4,00,00,00,00,00,00,
12612615,108182FE,true,Tx,0,8,04,A4,00,00,00,00,00,00,
12614008,1081827E,true,Rx,0,8,23,98,00,00,00,00,00,00,
12613774,108182FE,true,Tx,0,8,05,A4,00,00,00,00,00,00,
12614890,108182FE,true,Tx,0,8,06,A4,00,00,00,00,00,00,
12616030,108182FE,true,Tx,0,8,07,A4,00,00,00,00,00,00,
12616358,1081827E,true,Rx,0,8,25,98,00,00,00,00,00,00,
12617149,108182FE,true,Tx,0,8,08,A4,00,00,00,00,00,00,
12618267,108182FE,true,Tx,0,8,09,A4,00,00,00,00,00,00,
12618728,1081827E,true,Rx,0,8,27,98,00,00,00,00,00,00,
12619380,108182FE,true,Tx,0,8,0A,A4,00,00,00,00,00,00,
12620512,108182FE,true,Tx,0,8,0B,A4,00,00,00,00,00,00,
12621011,1081827E,true,Rx,0,8,29,98,00,00,00,00,00,00,
12621632,108182FE,true,Tx,0,8,0C,A4,00,00,00,00,00,00,
12622743,108182FE,true,Tx,0,8,0D,A4,00,00,00,00,00,00,
12623299,1081827E,true,Rx,0,8,2B,98,00,00,00,00,00,00,
12624147,108182FE,true,Tx,0,8,0E,A4,00,00,00,00,00,00,
12625626,1081827E,true,Rx,0,8,2D,98,00,00,00,00,00,00,
12625686,108182FE,true,Tx,0,8,0F,A4,00,00,00,00,00,00,
12626864,108182FE,true,Tx,0,8,00,A5,00,00,00,00,00,00,
12627957,1081827E,true,Rx,0,8,2E,98,00,00,00,00,00,00,
12628104,108182FE,true,Tx,0,8,01,A5,00,00,00,00,00,00,
12629363,108182FE,true,Tx,0,8,02,A5,00,00,00,00,00,00,
12630297,1081827E,true,Rx,0,8,20,99,00,00,00,00,00,00,
12630595,108182FE,true,Tx,0,8,03,A5,00,00,00,00,00,00,
12631711,108182FE,true,Tx,0,8,04,A5,00,00,00,00,00,00,
12632584,1081827E,true,Rx,0,8,22,99,00,00,00,00,00,00,
12632865,108182FE,true,Tx,0,8,05,A5,00,00,00,00,00,00,
12634023,108182FE,true,Tx,0,8,06,A5,00,00,00,00,00,00,
12634900,1081827E,true,Rx,0,8,24,99,00,00,00,00,00,00,
12635150,108182FE,true,Tx,0,8,07,A5,00,00,00,00,00,00,
12636287,108182FE,true,Tx,0,8,08,A5,00,00,00,00,00,00,
12637237,1081827E,true,Rx,0,8,26,99,00,00,00,00,00,00,
12637483,108182FE,true,Tx,0,8,09,A5,00,00,00,00,00,00,
12638585,108182FE,true,Tx,0,8,0A,A5,00,00,00,00,00,00,
12639530,1081827E,true,Rx,0,8,29,99,00,00,00,00,00,00,
12641858,1081827E,true,Rx,0,8,2B,99,00,00,00,00,00,00,
12644178,1081827E,true,Rx,0,8,2C,99,00,00,00,00,00,00,
12646522,1081827E,true,Rx,0,8,2E,99,00,00,00,00,00,00,
12648840,1081827E,true,Rx,0,8,2F,99,00,00,00,00,00,00,
12651131,1081827E,true,Rx,0,8,22,9A,00,00,00,00,00,00,
12652523,108182FE,true,Tx,0,8,0B,A5,00,00,00,00,00,00,
12653472,1081827E,true,Rx,0,8,24,9A,00,00,00,00,00,00,
12655773,1081827E,true,Rx,0,8,26,9A,00,00,00,00,00,00,
12658130,1081827E,true,Rx,0,8,28,9A,00,00,00,00,00,00,
12660428,1081827E,true,Rx,0,8,29,9A,00,00,00,00,00,00,
12662766,1081827E,true,Rx,0,8,2B,9A,00,00,00,00,00,00,
12665072,1081827E,true,Rx,0,8,2C,9A,00,00,00,00,00,00,
12667360,1081827E,true,Rx,0,8,2E,9A,00,00,00,00,00,00,
12669389,108182FE,true,Tx,0,8,0C,A5,00,00,00,00,00,00,
12669737,1081827E,true,Rx,0,8,20,9B,00,00,00,00,00,00,
12671429,108182FE,true,Tx,0,8,0D,A5,00,00,00,00,00,00,
12672019,1081827E,true,Rx,0,8,22,9B,00,00,00,00,00,00,
12673797,108182FE,true,Tx,0,8,0E,A5,00,00,00,00,00,00,
12674313,1081827E,true,Rx,0,8,25,9B,00,00,00,00,00,00,
12676261,108182FE,true,Tx,0,8,0F,A5,00,00,00,00,00,00,
12676633,1081827E,true,Rx,0,8,26,9B,00,00,00,00,00,00,
12677998,108182FE,true,Tx,0,8,00,A6,00,00,00,00,00,00,
12678938,1081827E,true,Rx,0,8,27,9B,00,00,00,00,00,00,
12679962,108182FE,true,Tx,0,8,01,A6,00,00,00,00,00,00,
12681245,1081827E,true,Rx,0,8,28,9B,00,00,00,00,00,00,
12681322,108182FE,true,Tx,0,8,02,A6,00,00,00,00,00,00,
12682780,108182FE,true,Tx,0,8,03,A6,00,00,00,00,00,00,
12683581,1081827E,true,Rx,0,8,29,9B,00,00,00,00,00,00,
12683934,108182FE,true,Tx,0,8,04,A6,00,00,00,00,00,00,
12685187,108182FE,true,Tx,0,8,05,A6,00,00,00,00,00,00,
12685843,1081827E,true,Rx,0,8,2A,9B,00,00,00,00,00,00,
12686408,108182FE,true,Tx,0,8,06,A6,00,00,00,00,00,00,
12687536,108182FE,true,Tx,0,8,07,A6,00,00,00,00,00,00,
12688183,1081827E,true,Rx,0,8,2B,9B,00,00,00,00,00,00,
12688704,108182FE,true,Tx,0,8,08,A6,00,00,00,00,00,00,
12689902,108182FE,true,Tx,0,8,09,A6,00,00,00,00,00,00,
12690539,1081827E,true,Rx,0,8,2C,9B,00,00,00,00,00,00,
12691101,108182FE,true,Tx,0,8,0A,A6,00,00,00,00,00,00,
12692830,1081827E,true,Rx,0,8,2D,9B,00,00,00,00,00,00,
12692804,108182FE,true,Tx,0,8,0B,A6,00,00,00,00,00,00,
12694102,108182FE,true,Tx,0,8,0C,A6,00,00,00,00,00,00,
12695168,1081827E,true,Rx,0,8,2E,9B,00,00,00,00,00,00,
12695630,108182FE,true,Tx,0,8,0D,A6,00,00,00,00,00,00,
12696772,108182FE,true,Tx,0,8,0E,A6,00,00,00,00,00,00,
12697918,108182FE,true,Tx,0,8,0F,A6,00,00,00,00,00,00,
12699146,108182FE,true,Tx,0,8,00,A7,00,00,00,00,00,00,
12699839,1081827E,true,Rx,0,8,2F,9B,00,00,00,00,00,00,
12699840,1001117E,true,Rx,0,8,00,01,00,00,00,00,00,00,
12699841,1081827E,true,Rx,0,8,20,9C,00,00,00,00,00,00,
12700423,108182FE,true,Tx,0,8,01,A7,00,00,00,00,00,00,
12701839,108182FE,true,Tx,0,8,02,A7,00,00,00,00,00,00,
12703356,1081827E,true,Rx,0,8,21,9C,00,00,00,00,00,00,
12703202,108182FE,true,Tx,0,8,03,A7,00,00,00,00,00,00,
12704636,108182FE,true,Tx,0,8,04,A7,00,00,00,00,00,00,
12705730,1081827E,true,Rx,0,8,22,9C,00,00,00,00,00,00,
12705939,108182FE,true,Tx,0,8,05,A7,00,00,00,00,00,00,
12707158,108182FE,true,Tx,0,8,06,A7,00,00,00,00,00,00,
12708025,1081827E,true,Rx,0,8,23,9C,00,00,00,00,00,00,
12708931,108182FE,true,Tx,0,8,07,A7,00,00,00,00,00,00,
12710310,1081827E,true,Rx,0,8,24,9C,00,00,00,00,00,00,
12710551,108182FE,true,Tx,0,8,08,A7,00,00,00,00,00,00,
12711925,108182FE,true,Tx,0,8,09,A7,00,00,00,00,00,00,
12712636,1081827E,true,Rx,0,8,25,9C,00,00,00,00,00,00,
12713388,108182FE,true,Tx,0,8,0A,A7,00,00,00,00,00,00,
12715012,1081827E,true,Rx,0,8,26,9C,00,00,00,00,00,00,
12714760,108182FE,true,Tx,0,8,0B,A7,00,00,00,00,00,00,
12716057,108182FE,true,Tx,0,8,0C,A7,00,00,00,00,00,00,
12717299,1081827E,true,Rx,0,8,27,9C,00,00,00,00,00,00,
12717389,108182FE,true,Tx,0,8,0D,A7,00,00,00,00,00,00,
12718764,108182FE,true,Tx,0,8,0E,A7,00,00,00,00,00,00,
12719729,1081827E,true,Rx,0,8,28,9C,00,00,00,00,00,00,
12720061,108182FE,true,Tx,0,8,0F,A7,00,00,00,00,00,00,
12721363,108182FE,true,Tx,0,8,00,A8,00,00,00,00,00,00,
12722677,108182FE,true,Tx,0,8,01,A8,00,00,00,00,00,00,
12723128,1081827E,true,Rx,0,8,29,9C,00,00,00,00,00,00,
12723129,1081827E,true,Rx,0,8,2A,9C,00,00,00,00,00,00,
12724047,108182FE,true,Tx,0,8,02,A8,00,00,00,00,00,00,
12726011,108182FE,true,Tx,0,8,03,A8,00,00,00,00,00,00,
12726726,1081827E,true,Rx,0,8,2B,9C,00,00,00,00,00,00,
12727495,108182FE,true,Tx,0,8,04,A8,00,00,00,00,00,00,
12728999,1081827E,true,Rx,0,8,2C,9C,00,00,00,00,00,00,
12729119,108182FE,true,Tx,0,8,05,A8,00,00,00,00,00,00,
12730350,108182FE,true,Tx,0,8,06,A8,00,00,00,00,00,00,
12731304,1081827E,true,Rx,0,8,2D,9C,00,00,00,00,00,00,
12731608,108182FE,true,Tx,0,8,07,A8,00,00,00,00,00,00,
12732884,108182FE,true,Tx,0,8,08,A8,00,00,00,00,00,00,
12733729,1081827E,true,Rx,0,8,2E,9C,00,00,00,00,00,00,
12734125,108182FE,true,Tx,0,8,09,A8,00,00,00,00,00,00,
12735320,108182FE,true,Tx,0,8,0A,A8,00,00,00,00,00,00,
12736463,108182FE,true,Tx,0,8,0B,A8,00,00,00,00,00,00,
12737127,1081827E,true,Rx,0,8,2F,9C,00,00,00,00,00,00,
12737127,1081827E,true,Rx,0,8,20,9D,00,00,00,00,00,00,
12737667,108182FE,true,Tx,0,8,0C,A8,00,00,00,00,00,00,
12738859,108182FE,true,Tx,0,8,0D,A8,00,00,00,00,00,00,
12740069,108182FE,true,Tx,0,8,0E,A8,00,00,00,00,00,00,
12740604,1081827E,true,Rx,0,8,21,9D,00,00,00,00,00,00,
12741446,108182FE,true,Tx,0,8,0F,A8,00,00,00,00,00,00,
12742898,1081827E,true,Rx,0,8,22,9D,00,00,00,00,00,00,
12742968,108182FE,true,Tx,0,8,00,A9,00,00,00,00,00,00,
12744488,108182FE,true,Tx,0,8,01,A9,00,00,00,00,00,00,
12745239,1081827E,true,Rx,0,8,23,9D,00,00,00,00,00,00,
12745734,108182FE,true,Tx,0,8,02,A9,00,00,00,00,00,00,
12746877,108182FE,true,Tx,0,8,03,A9,00,00,00,00,00,00,
12747526,1081827E,true,Rx,0,8,24,9D,00,00,00,00,00,00,
12748112,108182FE,true,Tx,0,8,04,A9,00,00,00,00,00,00,
12749297,108182FE,true,Tx,0,8,05,A9,00,00,00,00,00,00,
12749846,1081827E,true,Rx,0,8,25,9D,00,00,00,00,00,00,
12750432,108182FE,true,Tx,0,8,06,A9,00,00,00,00,00,00,
12751571,108182FE,true,Tx,0,8,07,A9,00,00,00,00,00,00,
12752193,1081827E,true,Rx,0,8,26,9D,00,00,00,00,00,00,
12752732,108182FE,true,Tx,0,8,08,A9,00,00,00,00,00,00,
12753894,108182FE,true,Tx,0,8,09,A9,00,00,00,00,00,00,
12754463,1081827E,true,Rx,0,8,27,9D,00,00,00,00,00,00,
12755046,108182FE,true,Tx,0,8,0A,A9,00,00,00,00,00,00,
12756195,108182FE,true,Tx,0,8,0B,A9,00,00,00,00,00,00,
12756785,1081827E,true,Rx,0,8,28,9D,00,00,00,00,00,00,
12757475,108182FE,true,Tx,0,8,0C,A9,00,00,00,00,00,00,
12759132,1081827E,true,Rx,0,8,29,9D,00,00,00,00,00,00,
12759292,108182FE,true,Tx,0,8,0D,A9,00,00,00,00,00,00,
12760640,108182FE,true,Tx,0,8,0E,A9,00,00,00,00,00,00,
12761414,1081827E,true,Rx,0,8,2A,9D,00,00,00,00,00,00,
12761910,108182FE,true,Tx,0,8,0F,A9,00,00,00,00,00,00,
12763313,108182FE,true,Tx,0,8,00,AA,00,00,00,00,00,00,
12763732,1081827E,true,Rx,0,8,2B,9D,00,00,00,00,00,00,
12764876,108182FE,true,Tx,0,8,01,AA,00,00,00,00,00,00,
12766070,1081827E,true,Rx,0,8,2C,9D,00,00,00,00,00,00,
12766106,108182FE,true,Tx,0,8,02,AA,00,00,00,00,00,00,
12767403,108182FE,true,Tx,0,8,03,AA,00,00,00,00,00,00,
12768414,1081827E,true,Rx,0,8,2D,9D,00,00,00,00,00,00,
12768645,108182FE,true,Tx,0,8,04,AA,00,00,00,00,00,00,
12769815,108182FE,true,Tx,0,8,05,AA,00,00,00,00,00,00,
12770731,1081827E,true,Rx,0,8,2F,9D,00,00,00,00,00,00,
12771058,108182FE,true,Tx,0,8,06,AA,00,00,00,00,00,00,
12772528,108182FE,true,Tx,0,8,07,AA,00,00,00,00,00,00,
12773016,1081827E,true,Rx,0,8,21,9E,00,00,00,00,00,00,
12773715,108182FE,true,Tx,0,8,08,AA,00,00,00,00,00,00,
12775359,1081827E,true,Rx,0,8,23,9E,00,00,00,00,00,00,
12775248,108182FE,true,Tx,0,8,09,AA,00,00,00,00,00,00,
12776671,108182FE,true,Tx,0,8,0A,AA,00,00,00,00,00,00,
12777728,1081827E,true,Rx,0,8,25,9E,00,00,00,00,00,00,
12777874,108182FE,true,Tx,0,8,0B,AA,00,00,00,00,00,00,
12779002,108182FE,true,Tx,0,8,0C,AA,00,00,00,00,00,00,
12779959,1081827E,true,Rx,0,8,26,9E,00,00,00,00,00,00,
12780105,108182FE,true,Tx,0,8,0D,AA,00,00,00,00,00,00,
12781213,108182FE,true,Tx,0,8,0E,AA,00,00,00,00,00,00,
12782300,1081827E,true,Rx,0,8,28,9E,00,00,00,00,00,00,
12782327,108182FE,true,Tx,0,8,0F,AA,00,00,00,00,00,00,
12783456,108182FE,true,Tx,0,8,00,AB,00,00,00,00,00,00,
12784590,1081827E,true,Rx,0,8,29,9E,00,00,00,00,00,00,
12784567,108182FE,true,Tx,0,8,01,AB,00,00,00,00,00,00,
12785692,108182FE,true,Tx,0,8,02,AB,00,00,00,00,00,00,
12786955,1081827E,true,Rx,0,8,2B,9E,00,00,00,00,00,00,
12786844,108182FE,true,Tx,0,8,03,AB,00,00,00,00,00,00,
12788059,108182FE,true,Tx,0,8,04,AB,00,00,00,00,00,00,
12789249,1081827E,true,Rx,0,8,2D,9E,00,00,00,00,00,00,
12789213,108182FE,true,Tx,0,8,05,AB,00,00,00,00,00,00,
12790343,108182FE,true,Tx,0,8,06,AB,00,00,00,00,00,00,
12791636,1081827E,true,Rx,0,8,2F,9E,00,00,00,00,00,00,
12791919,108182FE,true,Tx,0,8,07,AB,00,00,00,00,00,00,
12793477,108182FE,true,Tx,0,8,08,AB,00,00,00,00,00,00,
12793904,1081827E,true,Rx,0,8,21,9F,00,00,00,00,00,00,
12794843,108182FE,true,Tx,0,8,09,AB,00,00,00,00,00,00,
12796285,1081827E,true,Rx,0,8,23,9F,00,00,00,00,00,00,
12796313,108182FE,true,Tx,0,8,0A,AB,00,00,00,00,00,00,
12797539,108182FE,true,Tx,0,8,0B,AB,00,00,00,00,00,00,
12798591,1081827E,true,Rx,0,8,25,9F,00,00,00,00,00,00,
12798828,108182FE,true,Tx,0,8,0C,AB,00,00,00,00,00,00,
12800092,108182FE,true,Tx,0,8,0D,AB,00,00,00,00,00,00,
12800897,1081827E,true,Rx,0,8,27,9F,00,00,00,00,00,00,
12801250,108182FE,true,Tx,0,8,0E,AB,00,00,00,00,00,00,
12802397,108182FE,true,Tx,0,8,0F,AB,00,00,00,00,00,00,
12803241,1081827E,true,Rx,0,8,28,9F,00,00,00,00,00,00,
12803521,108182FE,true,Tx,0,8,00,AC,00,00,00,00,00,00,
12804734,108182FE,true,Tx,0,8,01,AC,00,00,00,00,00,00,
12805588,1081827E,true,Rx,0,8,2B,9F,00,00,00,00,00,00,
12805834,108182FE,true,Tx,0,8,02,AC,00,00,00,00,00,00,
12806951,108182FE,true,Tx,0,8,03,AC,00,00,00,00,00,00,
12807960,1081827E,true,Rx,0,8,2D,9F,00,00,00,00,00,00,
12808458,108182FE,true,Tx,0,8,04,AC,00,00,00,00,00,00,
12809914,108182FE,true,Tx,0,8,05,AC,00,00,00,00,00,00,
12810292,1081827E,true,Rx,0,8,2E,9F,00,00,00,00,00,00,
12811259,108182FE,true,Tx,0,8,06,AC,00,00,00,00,00,00,
12812628,1081827E,true,Rx,0,8,2F,9F,00,00,00,00,00,00,
12812782,108182FE,true,Tx,0,8,07,AC,00,00,00,00,00,00,
12813925,108182FE,true,Tx,0,8,08,AC,00,00,00,00,00,00,
12815112,108182FE,true,Tx,0,8,09,AC,00,00,00,00,00,00,
12816065,1081827E,true,Rx,0,8,01,A0,93,F7,93,F7,93,F7,
12816066,1081827E,true,Rx,0,8,23,A0,00,00,00,00,00,00,
12816332,108182FE,true,Tx,0,8,0A,AC,00,00,00,00,00,00,
12817462,108182FE,true,Tx,0,8,0B,AC,00,00,00,00,00,00,
12818570,108182FE,true,Tx,0,8,0C,AC,00,00,00,00,00,00,
12819530,1081827E,true,Rx,0,8,25,A0,00,00,00,00,00,00,
12819709,108182FE,true,Tx,0,8,0D,AC,00,00,00,00,00,00,
12820895,108182FE,true,Tx,0,8,0E,AC,00,00,00,00,00,00,
12821898,1081827E,true,Rx,0,8,27,A0,00,00,00,00,00,00,
12822100,108182FE,true,Tx,0,8,0F,AC,00,00,00,00,00,00,
12823256,108182FE,true,Tx,0,8,00,AD,00,00,00,00,00,00,
12824187,1081827E,true,Rx,0,8,28,A0,00,00,00,00,00,00,
12824511,108182FE,true,Tx,0,8,01,AD,00,00,00,00,00,00,
12825746,108182FE,true,Tx,0,8,02,AD,00,00,00,00,00,00,
12826530,1081827E,true,Rx,0,8,2A,A0,00,00,00,00,00,00,
12826953,108182FE,true,Tx,0,8,03,AD,00,00,00,00,00,00,
12828060,108182FE,true,Tx,0,8,04,AD,00,00,00,00,00,00,
12828895,1081827E,true,Rx,0,8,2B,A0,00,00,00,00,00,00,
12829244,108182FE,true,Tx,0,8,05,AD,00,00,00,00,00,00,
12830410,108182FE,true,Tx,0,8,06,AD,00,00,00,00,00,00,
12831185,1081827E,true,Rx,0,8,2D,A0,00,00,00,00,00,00,
12831604,108182FE,true,Tx,0,8,07,AD,00,00,00,00,00,00,
12832856,108182FE,true,Tx,0,8,08,AD,00,00,00,00,00,00,
12833537,1081827E,true,Rx,0,8,2E,A0,00,00,00,00,00,00,
12834292,108182FE,true,Tx,0,8,09,AD,00,00,00,00,00,00,
12835507,108182FE,true,Tx,0,8,0A,AD,00,00,00,00,00,00,
12835841,1081827E,true,Rx,0,8,20,A1,00,00,00,00,00,00,
12836852,108182FE,true,Tx,0,8,0B,AD,00,00,00,00,00,00,
12838187,1081827E,true,Rx,0,8,22,A1,00,00,00,00,00,00,
12838118,108182FE,true,Tx,0,8,0C,AD,00,00,00,00,00,00,
12839277,108182FE,true,Tx,0,8,0D,AD,00,00,00,00,00,00,
12840478,1081827E,true,Rx,0,8,24,A1,00,00,00,00,00,00,
12840423,108182FE,true,Tx,0,8,0E,AD,00,00,00,00,00,00,
12841844,108182FE,true,Tx,0,8,0F,AD,00,00,00,00,00,00,
12842782,1081827E,true,Rx,0,8,26,A1,00,00,00,00,00,00,
12843412,108182FE,true,Tx,0,8,00,AE,00,00,00,00,00,00,
12844741,108182FE,true,Tx,0,8,01,AE,00,00,00,00,00,00,
12845123,1081827E,true,Rx,0,8,28,A1,00,00,00,00,00,00,
12846152,108182FE,true,Tx,0,8,02,AE,00,00,00,00,00,00,
12847415,1081827E,true,Rx,0,8,29,A1,00,00,00,00,00,00,
12847353,108182FE,true,Tx,0,8,03,AE,00,00,00,00,00,00,
12848491,108182FE,true,Tx,0,8,04,AE,00,00,00,00,00,00,
12849774,1081827E,true,Rx,0,8,2B,A1,00,00,00,00,00,00,
12849699,108182FE,true,Tx,0,8,05,AE,00,00,00,00,00,00,
12850859,108182FE,true,Tx,0,8,06,AE,00,00,00,00,00,00,
12852077,1081827E,true,Rx,0,8,2D,A1,00,00,00,00,00,00,
12852049,108182FE,true,Tx,0,8,07,AE,00,00,00,00,00,00,
12853595,108182FE,true,Tx,0,8,08,AE,00,00,00,00,00,00,
12854420,1081827E,true,Rx,0,8,2F,A1,00,00,00,00,00,00,
12855655,108182FE,true,Tx,0,8,09,AE,00,00,00,00,00,00,
12856733,1081827E,true,Rx,0,8,21,A2,00,00,00,00,00,00,
12856809,108182FE,true,Tx,0,8,0A,AE,00,00,00,00,00,00,
12858159,108182FE,true,Tx,0,8,0B,AE,00,00,00,00,00,00,
12859074,1081827E,true,Rx,0,8,23,A2,00,00,00,00,00,00,
12859764,108182FE,true,Tx,0,8,0C,AE,00,00,00,00,00,00,
12861346,1081827E,true,Rx,0,8,25,A2,00,00,00,00,00,00,
12861053,108182FE,true,Tx,0,8,0D,AE,00,00,00,00,00,00,
12862536,108182FE,true,Tx,0,8,0E,AE,00,00,00,00,00,00,
12863726,1081827E,true,Rx,0,8,26,A2,00,00,00,00,00,00,
12863756,108182FE,true,Tx,0,8,0F,AE,00,00,00,00,00,00,
12864974,108182FE,true,Tx,0,8,00,AF,00,00,00,00,00,00,
12866011,1081827E,true,Rx,0,8,28,A2,00,00,00,00,00,00,
12866237,108182FE,true,Tx,0,8,01,AF,00,00,00,00,00,00,
12867376,108182FE,true,Tx,0,8,02,AF,00,00,00,00,00,00,
12868358,1081827E,true,Rx,0,8,2A,A2,00,00,00,00,00,00,
12868575,108182FE,true,Tx,0,8,03,AF,00,00,00,00,00,00,
12869722,108182FE,true,Tx,0,8,04,AF,00,00,00,00,00,00,
12870731,1081827E,true,Rx,0,8,2D,A2,00,00,00,00,00,00,
12870889,108182FE,true,Tx,0,8,05,AF,00,00,00,00,00,00,
12872032,108182FE,true,Tx,0,8,06,AF,00,00,00,00,00,00,
12873017,1081827E,true,Rx,0,8,2F,A2,00,00,00,00,00,00,
12873222,108182FE,true,Tx,0,8,07,AF,00,00,00,00,00,00,
12874644,108182FE,true,Tx,0,8,08,AF,00,00,00,00,00,00,
12875265,1081827E,true,Rx,0,8,01,A3,71,0D,71,0D,71,0D,
12876166,108182FE,true,Tx,0,8,09,AF,00,00,00,00,00,00,
12877528,1081827E,true,Rx,0,8,23,A3,00,00,00,00,00,00,
12877371,108182FE,true,Tx,0,8,0A,AF,00,00,00,00,00,00,
12878573,108182FE,true,Tx,0,8,0B,AF,00,00,00,00,00,00,
12879835,1081827E,true,Rx,0,8,24,A3,00,00,00,00,00,00,
12879754,108182FE,true,Tx,0,8,0C,AF,00,00,00,00,00,00,
12880919,108182FE,true,Tx,0,8,0D,AF,00,00,00,00,00,00,
12882107,108182FE,true,Tx,0,8,0E,AF,00,00,00,00,00,00,
12883279,108182FE,true,Tx,0,8,0F,AF,00,00,00,00,00,00,
12884536,1081827E,true,Rx,0,8,26,A3,00,00,00,00,00,00,
12884537,100011FE,true,Rx,0,8,00,02,00,00,00,00,00,00,
12884538,1081827E,true,Rx,0,8,28,A3,00,00,00,00,00,00,
12884430,108182FE,true,Tx,0,8,00,B0,00,00,00,00,00,00,
12885578,108182FE,true,Tx,0,8,01,B0,00,00,00,00,00,00,
12886747,108182FE,true,Tx,0,8,02,B0,00,00,00,00,00,00,
12887885,108182FE,true,Tx,0,8,03,B0,00,00,00,00,00,00,
12889129,1081827E,true,Rx,0,8,2A,A3,00,00,00,00,00,00,
12889292,108182FE,true,Tx,0,8,04,B0,00,00,00,00,00,00,
12891480,1081827E,true,Rx,0,8,2C,A3,00,00,00,00,00,00,
12893780,1081827E,true,Rx,0,8,2E,A3,00,00,00,00,00,00,
12896129,1081827E,true,Rx,0,8,20,A4,00,00,00,00,00,00,
12898421,1081827E,true,Rx,0,8,22,A4,00,00,00,00,00,00,
12900773,1081827E,true,Rx,0,8,23,A4,00,00,00,00,00,00,
12902546,108182FE,true,Tx,0,8,05,B0,00,00,00,00,00,00,
12903130,1081827E,true,Rx,0,8,25,A4,00,00,00,00,00,00,
12905414,1081827E,true,Rx,0,8,27,A4,00,00,00,00,00,00,
12907777,1081827E,true,Rx,0,8,29,A4,00,00,00,00,00,00,
12911273,1081827E,true,Rx,0,8,2C,A4,00,00,00,00,00,00,
12911275,1081827E,true,Rx,0,8,2E,A4,00,00,00,00,00,00,
12913585,1081827E,true,Rx,0,8,2F,A4,00,00,00,00,00,00,
12915903,1081827E,true,Rx,0,8,21,A5,00,00,00,00,00,00,
12916963,108182FE,true,Tx,0,8,06,B0,00,00,00,00,00,00,
12918190,1081827E,true,Rx,0,8,23,A5,00,00,00,00,00,00,
12918573,108182FE,true,Tx,0,8,07,B0,00,00,00,00,00,00,
12919868,108182FE,true,Tx,0,8,08,B0,00,00,00,00,00,00,
12920536,1081827E,true,Rx,0,8,25,A5,00,00,00,00,00,00,
12921096,108182FE,true,Tx,0,8,09,B0,00,00,00,00,00,00,
12922353,108182FE,true,Tx,0,8,0A,B0,00,00,00,00,00,00,
12922840,1081827E,true,Rx,0,8,27,A5,00,00,00,00,00,00,
12923573,108182FE,true,Tx,0,8,0B,B0,00,00,00,00,00,00,
12925179,1081827E,true,Rx,0,8,29,A5,00,00,00,00,00,00,
12925081,108182FE,true,Tx,0,8,0C,B0,00,00,00,00,00,00,
12926809,108182FE,true,Tx,0,8,0D,B0,00,00,00,00,00,00,
12927505,1081827E,true,Rx,0,8,2B,A5,00,00,00,00,00,00,
12928650,108182FE,true,Tx,0,8,0E,B0,00,00,00,00,00,00,
12929774,1081827E,true,Rx,0,8,2C,A5,00,00,00,00,00,00,
12930013,108182FE,true,Tx,0,8,0F,B0,00,00,00,00,00,00,
12931524,108182FE,true,Tx,0,8,00,B1,00,00,00,00,00,00,
12932124,1081827E,true,Rx,0,8,2D,A5,00,00,00,00,00,00,
12932771,108182FE,true,Tx,0,8,01,B1,00,00,00,00,00,00,
12933919,108182FE,true,Tx,0,8,02,B1,00,00,00,00,00,00,
12934417,1081827E,true,Rx,0,8,2E,A5,00,00,00,00,00,00,
12935110,108182FE,true,Tx,0,8,03,B1,00,00,00,00,00,00,
12936324,108182FE,true,Tx,0,8,04,B1,00,00,00,00,00,00,
12936774,1081827E,true,Rx,0,8,2F,A5,00,00,00,00,00,00,
12937498,108182FE,true,Tx,0,8,05,B1,00,00,00,00,00,00,
12938615,108182FE,true,Tx,0,8,06,B1,00,00,00,00,00,00,
12939072,1081827E,true,Rx,0,8,20,A6,00,00,00,00,00,00,
12939792,108182FE,true,Tx,0,8,07,B1,00,00,00,00,00,00,
12941368,1081827E,true,Rx,0,8,01,A6,EC,0E,EC,0E,EC,0E,
12941769,108182FE,true,Tx,0,8,08,B1,00,00,00,00,00,00,
12943723,1081827E,true,Rx,0,8,22,A6,00,00,00,00,00,00,
12943478,108182FE,true,Tx,0,8,09,B1,00,00,00,00,00,00,
12944671,108182FE,true,Tx,0,8,0A,B1,00,00,00,00,00,00,
12946011,1081827E,true,Rx,0,8,23,A6,00,00,00,00,00,00,
12945890,108182FE,true,Tx,0,8,0B,B1,00,00,00,00,00,00,
12947005,108182FE,true,Tx,0,8,0C,B1,00,00,00,00,00,00,
12948311,1081827E,true,Rx,0,8,24,A6,00,00,00,00,00,00,
12948333,108182FE,true,Tx,0,8,0D,B1,00,00,00,00,00,00,
12949515,108182FE,true,Tx,0,8,0E,B1,00,00,00,00,00,00,
12950732,1081827E,true,Rx,0,8,25,A6,00,00,00,00,00,00,
12950705,108182FE,true,Tx,0,8,0F,B1,00,00,00,00,00,00,
12952554,108182FE,true,Tx,0,8,00,B2,00,00,00,00,00,00,
12952958,1081827E,true,Rx,0,8,26,A6,00,00,00,00,00,00,
12954798,108182FE,true,Tx,0,8,01,B2,00,00,00,00,00,00,
12955308,1081827E,true,Rx,0,8,27,A6,00,00,00,00,00,00,
12957034,108182FE,true,Tx,0,8,02,B2,00,00,00,00,00,00,
12957605,1081827E,true,Rx,0,8,28,A6,00,00,00,00,00,00,
12958551,108182FE,true,Tx,0,8,03,B2,00,00,00,00,00,00,
12959943,1081827E,true,Rx,0,8,29,A6,00,00,00,00,00,00,
12960139,108182FE,true,Tx,0,8,04,B2,00,00,00,00,00,00,
12961417,108182FE,true,Tx,0,8,05,B2,00,00,00,00,00,00,
12962245,1081827E,true,Rx,0,8,2A,A6,00,00,00,00,00,00,
12962975,108182FE,true,Tx,0,8,06,B2,00,00,00,00,00,00,
12964112,108182FE,true,Tx,0,8,07,B2,00,00,00,00,00,00,
12964534,1081827E,true,Rx,0,8,2B,A6,00,00,00,00,00,00,
12965282,108182FE,true,Tx,0,8,08,B2,00,00,00,00,00,00,
12966848,1081827E,true,Rx,0,8,2C,A6,00,00,00,00,00,00,
12966609,108182FE,true,Tx,0,8,09,B2,00,00,00,00,00,00,
12967973,108182FE,true,Tx,0,8,0A,B2,00,00,00,00,00,00,
12969191,1081827E,true,Rx,0,8,2D,A6,00,00,00,00,00,00,
12969359,108182FE,true,Tx,0,8,0B,B2,00,00,00,00,00,00,
12970625,108182FE,true,Tx,0,8,0C,B2,00,00,00,00,00,00,
12971532,1081827E,true,Rx,0,8,2E,A6,00,00,00,00,00,00,
12971959,108182FE,true,Tx,0,8,0D,B2,00,00,00,00,00,00,
12973249,108182FE,true,Tx,0,8,0E,B2,00,00,00,00,00,00,
12973842,1081827E,true,Rx,0,8,2F,A6,00,00,00,00,00,00,
12974672,108182FE,true,Tx,0,8,0F,B2,00,00,00,00,00,00,
